Time [s],Value,Parity Error,Framing Error
-11.540521999999999,0xFF,,
-11.539365699999999,0xFF,,
-11.538210100000001,0x01,,
-11.537054100000001,0x04,,
-11.535898000000000,0x8A,,
-11.534741600000000,0x00,,
-11.533582700000000,0x04,,
-11.532423900000000,0x6C,,
-11.531128700000000,0xFF,,
-11.529982400000000,0xFF,,
-11.528837400000000,0x01,,
-11.527692500000001,0x06,,
-11.526547500000000,0x00,,
-11.525402000000000,0x03,,
-11.524256800000000,0x21,,
-11.523111399999999,0x01,,
-11.521966000000001,0x08,,
-11.520821099999999,0xCB,,
-11.514802700000001,0x00,,Error
-11.233527199999999,0xFF,,
-11.232370700000001,0xFF,,
-11.231214899999999,0x01,,
-11.230059499999999,0x04,,
-11.228903400000000,0x8A,,
-11.227746900000000,0x00,,
-11.226588100000001,0x04,,
-11.225429600000000,0x6C,,
-11.224134200000000,0xFF,,
-11.222987900000000,0xFF,,
-11.221842400000000,0x01,,
-11.220697599999999,0x06,,
-11.219552100000000,0x00,,
-11.218406600000000,0x03,,
-11.217261000000001,0x21,,
-11.216115600000000,0x01,,
-11.214970200000000,0x08,,
-11.213825200000000,0xCB,,
-11.207806900000000,0x00,,Error
-10.908524000000000,0xFF,,
-10.907368800000000,0xFF,,
-10.906213200000000,0x01,,
-10.905057100000001,0x04,,
-10.903900500000001,0x8A,,
-10.902744300000000,0x00,,
-10.901585499999999,0x04,,
-10.900426000000000,0x6C,,
-10.899131900000000,0xFF,,
-10.897985500000001,0xFF,,
-10.896840600000001,0x01,,
-10.895695099999999,0x06,,
-10.894550199999999,0x00,,
-10.893404000000000,0x03,,
-10.892258999999999,0x21,,
-10.891113400000000,0x01,,
-10.889968000000000,0x08,,
-10.888823100000000,0xCB,,
-10.882804900000000,0x00,,Error
-10.530527800000000,0xFF,,
-10.529371899999999,0xFF,,
-10.528216199999999,0x01,,
-10.527060700000000,0x04,,
-10.525904600000000,0x8A,,
-10.524748799999999,0x00,,
-10.523590799999999,0x04,,
-10.522432100000000,0x6C,,
-10.521134800000000,0xFF,,
-10.519988400000001,0xFF,,
-10.518843600000000,0x01,,
-10.517698599999999,0x06,,
-10.516553699999999,0x00,,
-10.515408100000000,0x03,,
-10.514263000000000,0x21,,
-10.513117599999999,0x01,,
-10.511972000000000,0x08,,
-10.510827000000001,0xCB,,
-10.504807599999999,0x00,,Error
-10.166534199999999,0xFF,,
-10.165378700000000,0xFF,,
-10.164223500000000,0x01,,
-10.163067500000000,0x04,,
-10.161910799999999,0x8A,,
-10.160754499999999,0x00,,
-10.159595899999999,0x04,,
-10.158436399999999,0x6C,,
-10.157141899999999,0xFF,,
-10.155995500000000,0xFF,,
-10.154850600000000,0x01,,
-10.153705499999999,0x06,,
-10.152560599999999,0x00,,
-10.151414900000001,0x03,,
-10.150269800000000,0x21,,
-10.149124400000000,0x01,,
-10.147978800000001,0x08,,
-10.146833800000000,0xCB,,
-10.140813400000001,0x00,,Error
-9.832535999999999,0xFF,,
-9.831380200000000,0xFF,,
-9.830224100000001,0x01,,
-9.829068500000000,0x04,,
-9.827912299999999,0x8A,,
-9.826756000000000,0x00,,
-9.825597800000001,0x04,,
-9.824439600000000,0x6C,,
-9.823142199999999,0xFF,,
-9.821995800000000,0xFF,,
-9.820850200000001,0x01,,
-9.819705300000001,0x06,,
-9.818559700000000,0x00,,
-9.817414200000000,0x03,,
-9.816268400000000,0x21,,
-9.815122900000000,0x01,,
-9.813977500000000,0x08,,
-9.812832300000000,0xCB,,
-9.806814200000000,0x00,,Error
-9.470542399999999,0xFF,,
-9.469386399999999,0xFF,,
-9.468231599999999,0x01,,
-9.467075599999999,0x04,,
-9.465919500000000,0x8A,,
-9.464763500000000,0x00,,
-9.463605500000000,0x04,,
-9.462446900000000,0x6C,,
-9.461150200000001,0xFF,,
-9.460003800000001,0xFF,,
-9.458858299999999,0x01,,
-9.457713399999999,0x06,,
-9.456567800000000,0x00,,
-9.455422300000000,0x03,,
-9.454276600000000,0x21,,
-9.453131100000000,0x01,,
-9.451985600000000,0x08,,
-9.450840500000000,0xCB,,
-9.444822200000001,0x00,,Error
-9.109546699999999,0xFF,,
-9.108390500000001,0xFF,,
-9.107234999999999,0x01,,
-9.106078900000000,0x04,,
-9.104922699999999,0x8A,,
-9.103766400000000,0x00,,
-9.102607900000001,0x04,,
-9.101449199999999,0x6C,,
-9.100152800000000,0xFF,,
-9.099006500000000,0xFF,,
-9.097861300000000,0x01,,
-9.096716400000000,0x06,,
-9.095571300000000,0x00,,
-9.094425700000000,0x03,,
-9.093280399999999,0x21,,
-9.092134900000000,0x01,,
-9.090989400000000,0x08,,
-9.089844400000000,0xCB,,
-9.083826400000000,0x00,,Error
-8.791552500000000,0xFF,,
-8.790395999999999,0xFF,,
-8.789240299999999,0x01,,
-8.788084800000000,0x04,,
-8.786928500000000,0x8A,,
-8.785771700000000,0x00,,
-8.784613100000000,0x04,,
-8.783454600000001,0x6C,,
-8.782159000000000,0xFF,,
-8.781012600000000,0xFF,,
-8.779866999999999,0x01,,
-8.778722100000000,0x06,,
-8.777576500000000,0x00,,
-8.776431000000001,0x03,,
-8.775285200000001,0x21,,
-8.774139699999999,0x01,,
-8.772994300000001,0x08,,
-8.771849100000001,0xCB,,
-8.765831000000000,0x00,,Error
-8.461555900000000,0xFF,,
-8.460400399999999,0xFF,,
-8.459244699999999,0x01,,
-8.458088600000000,0x04,,
-8.456931900000001,0x8A,,
-8.455775900000001,0x00,,
-8.454616600000000,0x04,,
-8.453456800000000,0x6C,,
-8.452163199999999,0xFF,,
-8.451016700000000,0xFF,,
-8.449871800000000,0x01,,
-8.448726300000001,0x06,,
-8.447581400000001,0x00,,
-8.446435299999999,0x03,,
-8.445290200000001,0x21,,
-8.444144600000000,0x01,,
-8.442999199999999,0x08,,
-8.441854299999999,0xCB,,
-8.435835900000001,0x00,,Error
-8.116556700000000,0xFF,,
-8.115400800000000,0xFF,,
-8.114245000000000,0x01,,
-8.113089000000000,0x04,,
-8.111932200000000,0x8A,,
-8.110776299999999,0x00,,
-8.109618200000000,0x04,,
-8.108459699999999,0x6C,,
-8.107162799999999,0xFF,,
-8.106016500000001,0xFF,,
-8.104871500000000,0x01,,
-8.103726600000000,0x06,,
-8.102581600000001,0x00,,
-8.101436100000001,0x03,,
-8.100290899999999,0x21,,
-8.099145500000001,0x01,,
-8.098000100000000,0x08,,
-8.096855100000001,0xCB,,
-8.090834800000000,0x00,,Error
-7.772557600000000,0xFF,,
-7.771401600000000,0xFF,,
-7.770245400000000,0x01,,
-7.769089800000000,0x04,,
-7.767933600000000,0x8A,,
-7.766777400000000,0x00,,
-7.765619700000000,0x04,,
-7.764461500000000,0x6C,,
-7.763162900000000,0xFF,,
-7.762016500000000,0xFF,,
-7.760871000000000,0x01,,
-7.759726000000000,0x06,,
-7.758580400000000,0x00,,
-7.757434800000000,0x03,,
-7.756289000000000,0x21,,
-7.755143500000000,0x01,,
-7.753998000000000,0x08,,
-7.752852800000000,0xCB,,
-7.746834100000000,0x00,,Error
-7.419566400000000,0xFF,,
-7.418411100000000,0xFF,,
-7.417256000000000,0x01,,
-7.416100500000000,0x04,,
-7.414943700000000,0x8A,,
-7.413787400000000,0x00,,
-7.412628400000000,0x04,,
-7.411469000000000,0x6C,,
-7.410174100000000,0xFF,,
-7.409027700000000,0xFF,,
-7.407882100000000,0x01,,
-7.406737200000000,0x06,,
-7.405591600000000,0x00,,
-7.404446000000000,0x03,,
-7.403300200000000,0x21,,
-7.402154700000000,0x01,,
-7.401009200000000,0x08,,
-7.399864000000000,0xCB,,
-7.393843100000000,0x00,,Error
-7.095566800000000,0xFF,,
-7.094410800000000,0xFF,,
-7.093255600000000,0x01,,
-7.092099500000000,0x04,,
-7.090943400000000,0x8A,,
-7.089787600000000,0x00,,
-7.088629600000000,0x04,,
-7.087471200000000,0x6C,,
-7.086173400000000,0xFF,,
-7.085027000000000,0xFF,,
-7.083881400000000,0x01,,
-7.082736500000000,0x06,,
-7.081590900000000,0x00,,
-7.080445400000000,0x03,,
-7.079299600000000,0x21,,
-7.078154100000000,0x01,,
-7.077008700000000,0x08,,
-7.075863500000000,0xCB,,
-7.069844600000000,0x00,,Error
-6.771568400000000,0xFF,,
-6.770411700000000,0xFF,,
-6.769255900000000,0x01,,
-6.768100400000000,0x04,,
-6.766944300000000,0x8A,,
-6.765788100000000,0x00,,
-6.764629900000000,0x04,,
-6.763471300000000,0x6C,,
-6.762174000000000,0xFF,,
-6.761027600000000,0xFF,,
-6.759881900000000,0x01,,
-6.758736900000000,0x06,,
-6.757591200000000,0x00,,
-6.756445500000000,0x03,,
-6.755299600000000,0x21,,
-6.754154000000000,0x01,,
-6.753008500000000,0x08,,
-6.751863200000000,0xCB,,
-6.745846400000000,0x00,,Error
-6.388571800000000,0xFF,,
-6.387415900000000,0xFF,,
-6.386261300000000,0x01,,
-6.385105200000000,0x04,,
-6.383948500000000,0x8A,,
-6.382792200000000,0x00,,
-6.381634500000000,0x04,,
-6.380476300000000,0x6C,,
-6.379179600000000,0xFF,,
-6.378033300000000,0xFF,,
-6.376887700000000,0x01,,
-6.375742700000000,0x06,,
-6.374597100000000,0x00,,
-6.373451600000000,0x03,,
-6.372305800000000,0x21,,
-6.371160300000000,0x01,,
-6.370014800000000,0x08,,
-6.368869700000000,0xCB,,
-6.362849900000000,0x00,,Error
-6.043574500000000,0xFF,,
-6.042418800000000,0xFF,,
-6.041263100000000,0x01,,
-6.040107100000000,0x04,,
-6.038951000000000,0x8A,,
-6.037795000000000,0x00,,
-6.036636600000000,0x04,,
-6.035478200000000,0x6C,,
-6.034180700000000,0xFF,,
-6.033034100000000,0xFF,,
-6.031889200000000,0x01,,
-6.030744100000000,0x06,,
-6.029599200000000,0x00,,
-6.028453500000000,0x03,,
-6.027308400000000,0x21,,
-6.026163000000000,0x01,,
-6.025017400000000,0x08,,
-6.023872400000000,0xCB,,
-6.017852200000000,0x00,,Error
-5.720579300000000,0xFF,,
-5.719423800000000,0xFF,,
-5.718268200000000,0x01,,
-5.717112100000000,0x04,,
-5.715956000000000,0x8A,,
-5.714800100000000,0x00,,
-5.713642000000000,0x04,,
-5.712483800000000,0x6C,,
-5.711186000000000,0xFF,,
-5.710039500000000,0xFF,,
-5.708894600000000,0x01,,
-5.707749600000000,0x06,,
-5.706604700000000,0x00,,
-5.705459000000000,0x03,,
-5.704313900000000,0x21,,
-5.703168500000000,0x01,,
-5.702023000000000,0x08,,
-5.700878000000000,0xCB,,
-5.694859800000000,0x00,,Error
-5.396580200000000,0xFF,,
-5.395423900000000,0xFF,,
-5.394268200000000,0x01,,
-5.393112700000000,0x04,,
-5.391956500000000,0x8A,,
-5.390800700000000,0x00,,
-5.389642400000000,0x04,,
-5.388483500000000,0x6C,,
-5.387186100000000,0xFF,,
-5.386039800000000,0xFF,,
-5.384894700000000,0x01,,
-5.383749800000000,0x06,,
-5.382604800000000,0x00,,
-5.381459200000000,0x03,,
-5.380314000000000,0x21,,
-5.379168600000000,0x01,,
-5.378023200000000,0x08,,
-5.376878200000000,0xCB,,
-5.370857400000000,0x00,,Error
-5.074588400000000,0xFF,,
-5.073432800000000,0xFF,,
-5.072277200000000,0x01,,
-5.071121300000000,0x04,,
-5.069964600000000,0x8A,,
-5.068808700000000,0x00,,
-5.067650400000000,0x04,,
-5.066491900000000,0x6C,,
-5.065195100000000,0xFF,,
-5.064048700000000,0xFF,,
-5.062903100000000,0x01,,
-5.061758100000000,0x06,,
-5.060612500000000,0x00,,
-5.059467000000000,0x03,,
-5.058321200000000,0x21,,
-5.057175700000000,0x01,,
-5.056030200000000,0x08,,
-5.054885000000000,0xCB,,
-5.048865400000000,0x00,,Error
-4.724593800000000,0xFF,,
-4.723438700000000,0xFF,,
-4.722283500000000,0x01,,
-4.721126600000000,0x04,,
-4.719970300000000,0x8A,,
-4.718814100000000,0x00,,
-4.717656100000000,0x04,,
-4.716497700000000,0x6C,,
-4.715201100000000,0xFF,,
-4.714054600000000,0xFF,,
-4.712909700000000,0x01,,
-4.711764700000000,0x06,,
-4.710619800000000,0x00,,
-4.709474100000000,0x03,,
-4.708329000000000,0x21,,
-4.707183700000000,0x01,,
-4.706038200000000,0x08,,
-4.704893200000000,0xCB,,
-4.698874900000000,0x00,,Error
-4.364598100000000,0xFF,,
-4.363442100000000,0xFF,,
-4.362286900000000,0x01,,
-4.361131500000000,0x04,,
-4.359975300000000,0x8A,,
-4.358818500000000,0x00,,
-4.357660400000000,0x04,,
-4.356502200000000,0x6C,,
-4.355205200000000,0xFF,,
-4.354058700000000,0xFF,,
-4.352913800000000,0x01,,
-4.351768700000000,0x06,,
-4.350623800000000,0x00,,
-4.349478100000000,0x03,,
-4.348333000000000,0x21,,
-4.347187600000000,0x01,,
-4.346042000000000,0x08,,
-4.344897100000000,0xCB,,
-4.338878600000000,0x00,,Error
-3.993600900000000,0xFF,,
-3.992444800000000,0xFF,,
-3.991289800000000,0x01,,
-3.990134200000000,0x04,,
-3.988978000000000,0x8A,,
-3.987821200000000,0x00,,
-3.986662700000000,0x04,,
-3.985504500000000,0x6C,,
-3.984208000000000,0xFF,,
-3.983061500000000,0xFF,,
-3.981916600000000,0x01,,
-3.980771500000000,0x06,,
-3.979626600000000,0x00,,
-3.978480900000000,0x03,,
-3.977335800000000,0x21,,
-3.976190300000000,0x01,,
-3.975044700000000,0x08,,
-3.973899800000000,0xCB,,
-3.967882000000000,0x00,,Error
-3.676597500000000,0xFF,,
-3.675441800000000,0xFF,,
-3.674286700000000,0x01,,
-3.673131100000000,0x04,,
-3.671975100000000,0x8A,,
-3.670819300000000,0x00,,
-3.669661600000000,0x04,,
-3.668503400000000,0x6C,,
-3.667213200000000,0xFF,,
-3.666066700000000,0xFF,,
-3.664921800000000,0x01,,
-3.663776800000000,0x06,,
-3.662631900000000,0x00,,
-3.661486200000000,0x03,,
-3.660341200000000,0x21,,
-3.659195700000000,0x01,,
-3.658050200000000,0x08,,
-3.656905200000000,0xCB,,
-3.650885300000000,0x00,,Error
-3.352605600000000,0xFF,,
-3.351449800000000,0xFF,,
-3.350294600000000,0x01,,
-3.349138600000000,0x04,,
-3.347981500000000,0x8A,,
-3.346825100000000,0x00,,
-3.345666000000000,0x04,,
-3.344506500000000,0x6C,,
-3.343213500000000,0xFF,,
-3.342067000000000,0xFF,,
-3.340922100000000,0x01,,
-3.339777100000000,0x06,,
-3.338632200000000,0x00,,
-3.337486500000000,0x03,,
-3.336341400000000,0x21,,
-3.335196000000000,0x01,,
-3.334050300000000,0x08,,
-3.332905300000000,0xCB,,
-3.326886700000000,0x00,,Error
-2.965610500000000,0xFF,,
-2.964455400000000,0xFF,,
-2.963299700000000,0x01,,
-2.962143700000000,0x04,,
-2.960987000000000,0x8A,,
-2.959830600000000,0x00,,
-2.958671300000000,0x04,,
-2.957511800000000,0x6C,,
-2.956218800000000,0xFF,,
-2.955072300000000,0xFF,,
-2.953927400000000,0x01,,
-2.952781800000000,0x06,,
-2.951636900000000,0x00,,
-2.950490700000000,0x03,,
-2.949345600000000,0x21,,
-2.948199900000000,0x01,,
-2.947054500000000,0x08,,
-2.945909500000000,0xCB,,
-2.939890700000000,0x00,,Error
-2.626610700000000,0xFF,,
-2.625455000000000,0xFF,,
-2.624298900000000,0x01,,
-2.623143400000000,0x04,,
-2.621986800000000,0x8A,,
-2.620830900000000,0x00,,
-2.619673000000000,0x04,,
-2.618514500000000,0x6C,,
-2.617216900000000,0xFF,,
-2.616070700000000,0xFF,,
-2.614925200000000,0x01,,
-2.613780300000000,0x06,,
-2.612634800000000,0x00,,
-2.611489300000000,0x03,,
-2.610343600000000,0x21,,
-2.609198200000000,0x01,,
-2.608052900000000,0x08,,
-2.606907800000000,0xCB,,
-2.600886100000000,0x00,,Error
-2.293610100000000,0xFF,,
-2.292454600000000,0xFF,,
-2.291299200000000,0x01,,
-2.290142400000000,0x04,,
-2.288986100000000,0x8A,,
-2.287829900000000,0x00,,
-2.286672000000000,0x04,,
-2.285513500000000,0x6C,,
-2.284216500000000,0xFF,,
-2.283070200000000,0xFF,,
-2.281924700000000,0x01,,
-2.280779800000000,0x06,,
-2.279634300000000,0x00,,
-2.278488800000000,0x03,,
-2.277343100000000,0x21,,
-2.276197700000000,0x01,,
-2.275052400000000,0x08,,
-2.273907300000000,0xCB,,
-2.267887900000000,0x00,,Error
-1.987614200000000,0xFF,,
-1.986457800000000,0xFF,,
-1.985302700000000,0x01,,
-1.984147200000000,0x04,,
-1.982991100000000,0x8A,,
-1.981834800000000,0x00,,
-1.980676600000000,0x04,,
-1.979518100000000,0x6C,,
-1.978221100000000,0xFF,,
-1.977074800000000,0xFF,,
-1.975929200000000,0x01,,
-1.974784300000000,0x06,,
-1.973638700000000,0x00,,
-1.972493200000000,0x03,,
-1.971347400000000,0x21,,
-1.970202000000000,0x01,,
-1.969056500000000,0x08,,
-1.967911300000000,0xCB,,
-1.961891600000000,0x00,,Error
-1.676622000000000,0xFF,,
-1.675466700000000,0xFF,,
-1.674311500000000,0x01,,
-1.673154500000000,0x04,,
-1.671998300000000,0x8A,,
-1.670841900000000,0x00,,
-1.669684000000000,0x04,,
-1.668525600000000,0x6C,,
-1.667229000000000,0xFF,,
-1.666082500000000,0xFF,,
-1.664937600000000,0x01,,
-1.663792500000000,0x06,,
-1.662647600000000,0x00,,
-1.661501800000000,0x03,,
-1.660356700000000,0x21,,
-1.659211300000000,0x01,,
-1.658065700000000,0x08,,
-1.656920700000000,0xCB,,
-1.650902900000000,0x00,,Error
-1.366622100000000,0xFF,,
-1.365466800000000,0xFF,,
-1.364311500000000,0x01,,
-1.363154000000000,0x04,,
-1.361997800000000,0x8A,,
-1.360841900000000,0x00,,
-1.359683800000000,0x04,,
-1.358525600000000,0x6C,,
-1.357229400000000,0xFF,,
-1.356083100000000,0xFF,,
-1.354937600000000,0x01,,
-1.353792800000000,0x06,,
-1.352647300000000,0x00,,
-1.351501800000000,0x03,,
-1.350356100000000,0x21,,
-1.349210700000000,0x01,,
-1.348065300000000,0x08,,
-1.346920200000000,0xCB,,
-1.340902500000000,0x00,,Error
-1.037625800000000,0xFF,,
-1.036469900000000,0xFF,,
-1.035313900000000,0x01,,
-1.034157900000000,0x04,,
-1.033001700000000,0x8A,,
-1.031845400000000,0x00,,
-1.030687500000000,0x04,,
-1.029528700000000,0x6C,,
-1.028232200000000,0xFF,,
-1.027085700000000,0xFF,,
-1.025940800000000,0x01,,
-1.024795800000000,0x06,,
-1.023650900000000,0x00,,
-1.022505300000000,0x03,,
-1.021360200000000,0x21,,
-1.020214800000000,0x01,,
-1.019069300000000,0x08,,
-1.017924300000000,0xCB,,
-1.011906300000000,0x00,,Error
-0.721630100000000,0xFF,,
-0.720474100000000,0xFF,,
-0.719318400000000,0x01,,
-0.718162400000000,0x04,,
-0.717006300000000,0x8A,,
-0.715850500000000,0x00,,
-0.714692800000000,0x04,,
-0.713534600000000,0x6C,,
-0.712236900000000,0xFF,,
-0.711090400000000,0xFF,,
-0.709945600000000,0x01,,
-0.708800500000000,0x06,,
-0.707655700000000,0x00,,
-0.706510000000000,0x03,,
-0.705365000000000,0x21,,
-0.704219600000000,0x01,,
-0.703074000000000,0x08,,
-0.701929100000000,0xCB,,
-0.695911500000000,0x00,,Error
-0.415632100000000,0xFF,,
-0.414476800000000,0xFF,,
-0.413321700000000,0x01,,
-0.412166300000000,0x04,,
-0.411009200000000,0x8A,,
-0.409852900000000,0x00,,
-0.408694200000000,0x04,,
-0.407535000000000,0x6C,,
-0.406240200000000,0xFF,,
-0.405093900000000,0xFF,,
-0.403948400000000,0x01,,
-0.402803500000000,0x06,,
-0.401658000000000,0x00,,
-0.400512400000000,0x03,,
-0.399366700000000,0x21,,
-0.398221300000000,0x01,,
-0.397075900000000,0x08,,
-0.395930800000000,0xCB,,
-0.389911500000000,0x00,,Error
-0.115638500000000,0xFF,,
-0.114482500000000,0xFF,,
-0.113326300000000,0x01,,
-0.112170700000000,0x04,,
-0.111014700000000,0x8A,,
-0.109858500000000,0x00,,
-0.108700700000000,0x04,,
-0.107542500000000,0x6C,,
-0.106244100000000,0xFF,,
-0.105097600000000,0xFF,,
-0.103952700000000,0x01,,
-0.102807600000000,0x06,,
-0.101662700000000,0x00,,
-0.100517000000000,0x03,,
-0.099371900000000,0x21,,
-0.098226600000000,0x01,,
-0.097081000000000,0x08,,
-0.095936100000000,0xCB,,
-0.089916000000000,0x00,,Error
-0.004623800000000,0xFF,,
-0.003467700000000,0xFF,,
-0.002312100000000,0x01,,
-0.001156700000000,0x04,,
0.000000000000000,0xCD,,
0.001155600000000,0x00,,
0.002313500000000,0x3B,,
0.003472200000000,0xF2,,
0.004843900000000,0xFF,,
0.005990300000000,0xFF,,
0.007135800000000,0x01,,
0.008280600000000,0x3D,,
0.009426100000000,0x00,,
0.010571900000000,0x3B,,
0.011717900000000,0xD0,,
0.012863200000000,0x0B,,
0.014008700000000,0xF6,,
0.015154000000000,0x82,,
0.016299400000000,0x82,,
0.017444800000000,0x80,,
0.018590300000000,0x03,,
0.019735600000000,0x00,,
0.020881000000000,0x3C,,
0.022026400000000,0x00,,
0.023171800000000,0x50,,
0.024317200000000,0x1E,,
0.025462700000000,0x00,,
0.026608000000000,0x00,,
0.027753500000000,0xC8,,
0.028898800000000,0x09,,
0.030044200000000,0xDC,,
0.031189500000000,0xDC,,
0.032335000000000,0xDC,,
0.033480300000000,0x29,,
0.034625800000000,0x21,,
0.035771100000000,0x1D,,
0.036916500000000,0x19,,
0.038061800000000,0x14,,
0.039207200000000,0x00,,
0.040352500000000,0x3C,,
0.041498000000000,0x00,,
0.042643300000000,0x3C,,
0.043788800000000,0x00,,
0.044934100000000,0x3C,,
0.046079600000000,0x00,,
0.047224900000000,0x00,,
0.048370400000000,0x00,,
0.049515700000000,0x00,,
0.050661200000000,0x00,,
0.051806600000000,0x01,,
0.052952000000000,0xE3,,
0.054097300000000,0xC0,,
0.055242800000000,0x00,,
0.056388100000000,0x50,,
0.057533600000000,0x00,,
0.058678900000000,0x50,,
0.059824400000000,0x00,,
0.060969600000000,0x50,,
0.062115000000000,0x00,,
0.063260300000000,0x00,,
0.064405700000000,0x00,,
0.065550900000000,0x16,,
0.066696300000000,0x0A,,
0.067841600000000,0x16,,
0.068987000000000,0x00,,
0.070132300000000,0x00,,
0.071277800000000,0x78,,
0.072423100000000,0x32,,
0.073568600000000,0x64,,
0.074713900000000,0x50,,
0.075859300000000,0x50,,
0.077004700000000,0x64,,
0.078149700000000,0xFB,,
0.084169100000000,0x00,,Error
0.123378400000000,0xFF,,
0.124535100000000,0xFF,,
0.125690800000000,0x01,,
0.126846300000000,0x04,,
0.128002400000000,0xCD,,
0.129158000000000,0x3B,,
0.130315500000000,0x24,,
0.131474200000000,0xCE,,
0.132810800000000,0xFF,,
0.133957200000000,0xFF,,
0.135102100000000,0x01,,
0.136247600000000,0x26,,
0.137392400000000,0x00,,
0.138538900000000,0x23,,
0.139684200000000,0xE3,,
0.140829700000000,0x00,,
0.141975100000000,0x00,,
0.143120600000000,0x00,,
0.144265900000000,0x53,,
0.145411400000000,0x41,,
0.146556700000000,0x33,,
