name,type,start_time,duration,"error","data"
"Axon Recover Micro D0","data",5.7129171,0.0009895,,0x88
"Axon Recover Micro D0","data",5.7139082,0.0009895,,0xFF
"Axon Recover Micro D0","data",5.7439043,0.0009895,,0x3E
"Axon Recover Micro D0","data",5.7448977,0.0009895,"framing",0xD3
"Axon Recover Micro D0","data",5.7458992,0.0009895,,0x6B
"Axon Recover Micro D0","data",5.7468906,0.0009895,,0x64
"Axon Recover Micro D0","data",5.7478877,0.0009895,,0xFF
"Axon Recover Micro D0","data",5.7779024,0.0009895,"framing",0x98
"Axon Recover Micro D0","data",5.7789385,0.0009895,,0xD8
"Axon Recover Micro D0","data",5.7799339,0.0009895,,0xFF
"Axon Recover Micro D0","data",5.7855029,0.0009895,,0xFF
"Axon Recover Micro D0","data",5.8159042,0.0009895,"framing",0xB8
"Axon Recover Micro D0","data",5.8169146,0.0009895,"framing",0x2C
"Axon Recover Micro D0","data",5.8179349,0.0009895,,0xFF
"Axon Recover Micro D0","data",5.8235041,0.0009895,,0xFF
"Axon Recover Micro D0","data",5.8589048,0.0009895,,0x1C
"Axon Recover Micro D0","data",5.859897,0.0009895,"framing",0x13
"Axon Recover Micro D0","data",5.8609061,0.0009895,,0xFF
"Axon Recover Micro D0","data",5.8664997,0.0009895,,0xFF
"Axon Recover Micro D0","data",5.896902,0.0009895,"framing",0x98
"Axon Recover Micro D0","data",5.8979295,0.0009895,,0x96
"Axon Recover Micro D0","data",5.8989336,0.0009895,,0xFF
"Axon Recover Micro D0","data",5.9045011,0.0009895,,0xFF
"Axon Recover Micro D0","data",5.9339046,0.0009895,"framing",0x38
"Axon Recover Micro D0","data",5.9349147,0.0009895,"framing",0x70
"Axon Recover Micro D0","data",5.9359354,0.0009895,,0xFF
"Axon Recover Micro D0","data",5.941505,0.0009895,,0xFF
"Axon Recover Micro D0","data",5.9729047,0.0009895,,0x18
"Axon Recover Micro D0","data",5.9738983,0.0009895,,0xF3
"Axon Recover Micro D0","data",5.9749005,0.0009895,,0xFF
"Axon Recover Micro D0","data",5.9805033,0.0009895,,0xFF
"Axon Recover Micro D0","data",6.014906,0.0009895,"framing",0xB8
"Axon Recover Micro D0","data",6.0159338,0.0009895,,0x6E
"Axon Recover Micro D0","data",6.0169369,0.0009895,,0xFF
"Axon Recover Micro D0","data",6.0225013,0.0009895,,0xFF
"Axon Recover Micro D0","data",6.0529044,0.0009895,"framing",0x9C
"Axon Recover Micro D0","data",6.0539145,0.0009895,,0xA8
"Axon Recover Micro D0","data",6.054935,0.0009895,,0xFF
"Axon Recover Micro D0","data",6.0605027,0.0009895,,0xFF
"Axon Recover Micro D0","data",6.0919034,0.0009895,,0x98
"Axon Recover Micro D0","data",6.0929055,0.0009895,,0xE1
"Axon Recover Micro D0","data",6.0938981,0.0009895,,0xFF
"Axon Recover Micro D0","data",6.0995007,0.0009895,,0xFF
"Axon Recover Micro D0","data",6.1329048,0.0009895,"framing",0x98
"Axon Recover Micro D0","data",6.1339061,0.0009895,,0x5D
"Axon Recover Micro D0","data",6.1348986,0.0009895,,0xFF
"Axon Recover Micro D0","data",6.1405019,0.0009895,,0xFF
"Axon Recover Micro D0","data",6.1699051,0.0009895,,0x3C
"Axon Recover Micro D0","data",6.1708989,0.0009895,,0x7B
"Axon Recover Micro D0","data",6.1718926,0.0009895,,0xFF
"Axon Recover Micro D0","data",6.1775062,0.0009895,,0xFF
"Axon Recover Micro D0","data",6.2078999,0.0009895,,0x3C
"Axon Recover Micro D0","data",6.208893,0.0009895,"framing",0xF3
"Axon Recover Micro D0","data",6.2099312,0.0009895,,0xFF
"Axon Recover Micro D0","data",6.215499,0.0009895,,0xFF
"Axon Recover Micro D0","data",6.2459014,0.0009895,"framing",0x3C
"Axon Recover Micro D0","data",6.2469027,0.0009895,,0xB1
"Axon Recover Micro D0","data",6.2478937,0.0009895,,0xFF
"Axon Recover Micro D0","data",6.2535007,0.0009895,,0xFF
"Axon Recover Micro D0","data",6.2858985,0.0009895,,0x18
"Axon Recover Micro D0","data",6.2868907,0.0009895,,0x23
"Axon Recover Micro D0","data",6.2879011,0.0009895,,0xFF
"Axon Recover Micro D0","data",6.3199004,0.0009895,"framing",0x9C
"Axon Recover Micro D0","data",6.320919,0.0009895,"framing",0x79
"Axon Recover Micro D0","data",6.3219304,0.0009895,,0xDF
"Axon Recover Micro D0","data",6.3518971,0.0009895,,0x1C
"Axon Recover Micro D0","data",6.3528976,0.0009895,"framing",0x3D
"Axon Recover Micro D0","data",6.3539276,0.0009895,,0xFF
"Axon Recover Micro D0","data",6.3889008,0.0009895,,0x98
"Axon Recover Micro D0","data",6.3898941,0.0009895,"framing",0x4B
"Axon Recover Micro D0","data",6.3909315,0.0009895,,0xDF
"Axon Recover Micro D0","data",6.4218954,0.0009895,,0x18
"Axon Recover Micro D0","data",6.422905,0.0009895,"framing",0x22
"Axon Recover Micro D0","data",6.4239253,0.0009895,,0xFF
"Axon Recover Micro D0","data",6.4549029,0.0009895,"framing",0x18
"Axon Recover Micro D0","data",6.4559119,0.0009895,"framing",0x92
"Axon Recover Micro D0","data",6.4569321,0.0009895,,0xDF
"Axon Recover Micro D0","data",6.4868951,0.0009895,"framing",0x98
"Axon Recover Micro D0","data",6.487904,0.0009895,,0x94
"Axon Recover Micro D0","data",6.4889228,0.0009895,,0xDF
"Axon Recover Micro D0","data",6.5188971,0.0009895,,0x9C
"Axon Recover Micro D0","data",6.5199162,0.0009895,,0x9C
"Axon Recover Micro D0","data",6.5209295,0.0009895,,0xDF
"Axon Recover Micro D0","data",6.5508948,0.0009895,"framing",0x9C
"Axon Recover Micro D0","data",6.5519129,0.0009895,"framing",0xEC
"Axon Recover Micro D0","data",6.5529239,0.0009895,,0xDF
"Axon Recover Micro D0","data",6.5829005,0.0009895,"framing",0x9C
"Axon Recover Micro D0","data",6.5839367,0.0009895,,0x86
"Axon Recover Micro D0","data",6.5849315,0.0009895,,0xDF
"Axon Recover Micro D0","data",6.6158977,0.0009895,"framing",0x1C
"Axon Recover Micro D0","data",6.6169074,0.0009895,,0x10
"Axon Recover Micro D0","data",6.6179279,0.0009895,,0xFF
"Axon Recover Micro D0","data",6.6478935,0.0009895,"framing",0x1C
"Axon Recover Micro D0","data",6.6489584,0.0009895,,0x9B
"Axon Recover Micro D0","data",6.6499518,0.0009895,,0xDF
"Axon Recover Micro D0","data",6.6809008,0.0009895,"framing",0x1C
"Axon Recover Micro D0","data",6.68192,0.0009895,,0x14
"Axon Recover Micro D0","data",6.6829323,0.0009895,,0xFF
"Axon Recover Micro D0","data",6.7158953,0.0009895,"framing",0x1C
"Axon Recover Micro D0","data",6.7169056,0.0009895,"framing",0x1E
"Axon Recover Micro D0","data",6.717925,0.0009895,,0xFF
"Axon Recover Micro D0","data",6.7478942,0.0009895,"framing",0x1C
"Axon Recover Micro D0","data",6.748904,0.0009895,,0x2A
"Axon Recover Micro D0","data",6.7498972,0.0009895,,0xFF
"Axon Recover Micro D0","data",6.7798975,0.0009895,"framing",0x18
"Axon Recover Micro D0","data",6.780961,0.0009895,"framing",0x99
"Axon Recover Micro D0","data",6.7819797,0.0009895,,0xFF
"Axon Recover Micro D0","data",6.8118997,0.0009895,"framing",0x98
"Axon Recover Micro D0","data",6.812918,0.0009895,,0x2F
"Axon Recover Micro D0","data",6.8139297,0.0009895,,0xFF
"Axon Recover Micro D0","data",6.8498912,0.0009895,"framing",0x98
"Axon Recover Micro D0","data",6.850901,0.0009895,"framing",0x9E
"Axon Recover Micro D0","data",6.8519215,0.0009895,,0xFF
"Axon Recover Micro D0","data",6.8828912,0.0009895,"framing",0x18
"Axon Recover Micro D0","data",6.8839088,0.0009895,"framing",0xF8
"Axon Recover Micro D0","data",6.8849212,0.0009895,,0xFF
"Axon Recover Micro D0","data",6.9158982,0.0009895,,0x98
"Axon Recover Micro D0","data",6.9168917,0.0009895,"framing",0xF3
"Axon Recover Micro D0","data",6.9179304,0.0009895,,0xDF
"Axon Recover Micro D0","data",6.9508905,0.0009895,"framing",0x18
"Axon Recover Micro D0","data",6.9519085,0.0009895,,0x19
"Axon Recover Micro D0","data",6.9529208,0.0009895,,0xDF
"Axon Recover Micro D0","data",6.982891,0.0009895,"framing",0x98
"Axon Recover Micro D0","data",6.9839001,0.0009895,,0x54
"Axon Recover Micro D0","data",6.9848927,0.0009895,,0xFF
"Axon Recover Micro D0","data",7.0178955,0.0009895,"framing",0x98
"Axon Recover Micro D0","data",7.0189052,0.0009895,"framing",0x96
"Axon Recover Micro D0","data",7.0199266,0.0009895,,0xFF
"Axon Recover Micro D0","data",7.0528902,0.0009895,"framing",0x1C
"Axon Recover Micro D0","data",7.0538996,0.0009895,"framing",0x96
"Axon Recover Micro D0","data",7.0549207,0.0009895,,0xFF
"Axon Recover Micro D0","data",7.0858963,0.0009895,,0x1C
"Axon Recover Micro D0","data",7.086888,0.0009895,"framing",0xA3
"Axon Recover Micro D0","data",7.0878978,0.0009895,,0xFF
"Axon Recover Micro D0","data",7.117894,0.0009895,"framing",0x1C
"Axon Recover Micro D0","data",7.1189031,0.0009895,"framing",0x76
"Axon Recover Micro D0","data",7.1199234,0.0009895,,0xDF
"Axon Recover Micro D0","data",7.1518932,0.0009895,,0x1C
"Axon Recover Micro D0","data",7.1529036,0.0009895,,0xDA
"Axon Recover Micro D0","data",7.1538965,0.0009895,,0xFF
"Axon Recover Micro D0","data",7.1858958,0.0009895,"framing",0x1C
"Axon Recover Micro D0","data",7.1869053,0.0009895,,0x36
"Axon Recover Micro D0","data",7.1879268,0.0009895,,0xFF
"Axon Recover Micro D0","data",7.2198934,0.0009895,"framing",0x1C
"Axon Recover Micro D0","data",7.2209033,0.0009895,"framing",0x76
"Axon Recover Micro D0","data",7.2219239,0.0009895,,0xDF
"Axon Recover Micro D0","data",7.2528915,0.0009895,"framing",0x1C
"Axon Recover Micro D0","data",7.25391,0.0009895,"framing",0x39
"Axon Recover Micro D0","data",7.2549229,0.0009895,,0xFF
"Axon Recover Micro D0","data",7.2858902,0.0009895,"framing",0x1C
"Axon Recover Micro D0","data",7.2868992,0.0009895,,0x7C
"Axon Recover Micro D0","data",7.2878924,0.0009895,,0xFF
"Axon Recover Micro D0","data",7.3178921,0.0009895,"framing",0x18
"Axon Recover Micro D0","data",7.31891,0.0009895,"framing",0xC9
"Axon Recover Micro D0","data",7.3199225,0.0009895,,0xFF
"Axon Recover Micro D0","data",7.3498921,0.0009895,"framing",0x98
"Axon Recover Micro D0","data",7.3509017,0.0009895,"framing",0x3E
"Axon Recover Micro D0","data",7.3519218,0.0009895,,0xFF
"Axon Recover Micro D0","data",7.3818945,0.0009895,"framing",0x18
"Axon Recover Micro D0","data",7.3829124,0.0009895,,0x09
"Axon Recover Micro D0","data",7.3839239,0.0009895,,0xDF
"Axon Recover Micro D0","data",7.413886,0.0009895,"framing",0x18
"Axon Recover Micro D0","data",7.4148952,0.0009895,,0xF6
"Axon Recover Micro D0","data",7.4159159,0.0009895,,0xDF
"Axon Recover Micro D0","data",7.4468897,0.0009895,"framing",0x18
"Axon Recover Micro D0","data",7.4479082,0.0009895,,0x2B
"Axon Recover Micro D0","data",7.44892,0.0009895,,0xDF
"Axon Recover Micro D0","data",7.4818913,0.0009895,,0x18
"Axon Recover Micro D0","data",7.4829192,0.0009895,,0xBD
"Axon Recover Micro D0","data",7.4839238,0.0009895,,0xDF
"Axon Recover Micro D0","data",7.514888,0.0009895,"framing",0x18
"Axon Recover Micro D0","data",7.5158971,0.0009895,"framing",0x7A
"Axon Recover Micro D0","data",7.5169181,0.0009895,,0xFF
"Axon Recover Micro D0","data",7.5488857,0.0009895,,0x18
"Axon Recover Micro D0","data",7.5498865,0.0009895,,0xFD
"Axon Recover Micro D0","data",7.5508881,0.0009895,,0xFF
"Axon Recover Micro D0","data",7.5808854,0.0009895,"framing",0x9C
"Axon Recover Micro D0","data",7.5818958,0.0009895,,0x32
"Axon Recover Micro D0","data",7.5828879,0.0009895,,0xFF
"Axon Recover Micro D0","data",7.6138922,0.0009895,,0x9C
"Axon Recover Micro D0","data",7.6148849,0.0009895,"framing",0x23
"Axon Recover Micro D0","data",7.6159218,0.0009895,,0xFF
"Axon Recover Micro D0","data",7.6468915,0.0009895,,0x9C
"Axon Recover Micro D0","data",7.647918,0.0009895,,0x42
"Axon Recover Micro D0","data",7.648921,0.0009895,,0xFF
"Axon Recover Micro D0","data",7.6808867,0.0009895,"framing",0x9C
"Axon Recover Micro D0","data",7.6819225,0.0009895,,0xAB
"Axon Recover Micro D0","data",7.6829179,0.0009895,,0xFF
"Axon Recover Micro D0","data",7.7128846,0.0009895,"framing",0x1C
"Axon Recover Micro D0","data",7.7138953,0.0009895,"framing",0x76
"Axon Recover Micro D0","data",7.7149168,0.0009895,,0xFF
"Axon Recover Micro D0","data",7.750885,0.0009895,,0xBC
"Axon Recover Micro D0","data",7.7519049,0.0009895,,0xB1
"Axon Recover Micro D0","data",7.7529175,0.0009895,,0xDF
"Axon Recover Micro D0","data",7.784885,0.0009895,,0x9C
"Axon Recover Micro D0","data",7.7858781,0.0009895,"framing",0xA3
"Axon Recover Micro D0","data",7.7868797,0.0009895,,0xFF
"Axon Recover Micro D0","data",7.8198902,0.0009895,"framing",0x9C
"Axon Recover Micro D0","data",7.8209252,0.0009895,,0xAB
"Axon Recover Micro D0","data",7.8219202,0.0009895,,0xFF
"Axon Recover Micro D0","data",7.8528857,0.0009895,,0x18
"Axon Recover Micro D0","data",7.8539127,0.0009895,,0x00
"Axon Recover Micro D0","data",7.8549169,0.0009895,,0xFF
"Axon Recover Micro D0","data",7.8878896,0.0009895,"framing",0x18
"Axon Recover Micro D0","data",7.8888992,0.0009895,,0x34
"Axon Recover Micro D0","data",7.8898926,0.0009895,,0xFF
"Axon Recover Micro D0","data",7.9198876,0.0009895,"framing",0x18
"Axon Recover Micro D0","data",7.9209224,0.0009895,,0xF0
"Axon Recover Micro D0","data",7.9219169,0.0009895,,0xDF
"Axon Recover Micro D0","data",7.9508891,0.0009895,"framing",0x18
"Axon Recover Micro D0","data",7.9518969,0.0009895,,0x5E
"Axon Recover Micro D0","data",7.9528905,0.0009895,,0xFF
"Axon Recover Micro D0","data",7.9828853,0.0009895,"framing",0x18
"Axon Recover Micro D0","data",7.9839038,0.0009895,"framing",0xEB
"Axon Recover Micro D0","data",7.9849158,0.0009895,,0xDF
"Axon Recover Micro D0","data",8.0158841,0.0009895,,0x18
"Axon Recover Micro D0","data",8.0168857,0.0009895,,0x99
"Axon Recover Micro D0","data",8.0178786,0.0009895,,0xFF
"Axon Recover Micro D0","data",8.0488824,0.0009895,"framing",0x18
"Axon Recover Micro D0","data",8.0499189,0.0009895,,0xC5
"Axon Recover Micro D0","data",8.0509154,0.0009895,,0xDF
"Axon Recover Micro D0","data",8.0808828,0.0009895,,0x18
"Axon Recover Micro D0","data",8.0819092,0.0009895,,0x8B
"Axon Recover Micro D0","data",8.0829124,0.0009895,,0xFF
"Axon Recover Micro D0","data",8.1138801,0.0009895,"framing",0x1C
"Axon Recover Micro D0","data",8.1148904,0.0009895,,0xE4
"Axon Recover Micro D0","data",8.1158828,0.0009895,,0xFF
"Axon Recover Micro D0","data",8.1498841,0.0009895,,0x1C
"Axon Recover Micro D0","data",8.1509115,0.0009895,,0x22
"Axon Recover Micro D0","data",8.151914,0.0009895,,0xFF
"Axon Recover Micro D0","data",8.1818801,0.0009895,,0x9C
"Axon Recover Micro D0","data",8.182873,0.0009895,,0x63
"Axon Recover Micro D0","data",8.183866,0.0009895,,0xFF
"Axon Recover Micro D0","data",8.2158815,0.0009895,"framing",0x1C
"Axon Recover Micro D0","data",8.2169,0.0009895,"framing",0x6B
"Axon Recover Micro D0","data",8.2179123,0.0009895,,0xDF
"Axon Recover Micro D0","data",8.2478802,0.0009895,,0x9C
"Axon Recover Micro D0","data",8.2488737,0.0009895,,0x0B
"Axon Recover Micro D0","data",8.2498668,0.0009895,,0xBF
"Axon Recover Micro D0","data",8.2798825,0.0009895,"framing",0x1C
"Axon Recover Micro D0","data",8.2809012,0.0009895,"framing",0x60
"Axon Recover Micro D0","data",8.2819139,0.0009895,,0xFF
"Axon Recover Micro D0","data",8.3148832,0.0009895,"framing",0x1C
"Axon Recover Micro D0","data",8.3158849,0.0009895,"framing",0x5D
"Axon Recover Micro D0","data",8.316914,0.0009895,,0xFF
"Axon Recover Micro D0","data",8.3528795,0.0009895,,0x1C
"Axon Recover Micro D0","data",8.3538723,0.0009895,,0x53
"Axon Recover Micro D0","data",8.3548645,0.0009895,,0xBF
"Axon Recover Micro D0","data",8.3858842,0.0009895,"framing",0x98
"Axon Recover Micro D0","data",8.3869029,0.0009895,,0x0D
"Axon Recover Micro D0","data",8.3879145,0.0009895,,0xFF
"Axon Recover Micro D0","data",8.4188807,0.0009895,"framing",0x98
"Axon Recover Micro D0","data",8.4198905,0.0009895,"framing",0x7C
"Axon Recover Micro D0","data",8.4209118,0.0009895,,0xDF
"Axon Recover Micro D0","data",8.450881,0.0009895,"framing",0x18
"Axon Recover Micro D0","data",8.4518913,0.0009895,"framing",0x76
"Axon Recover Micro D0","data",8.452912,0.0009895,,0xFF
"Axon Recover Micro D0","data",8.4828816,0.0009895,"framing",0x18
"Axon Recover Micro D0","data",8.4839173,0.0009895,,0xDF
"Axon Recover Micro D0","data",8.4849132,0.0009895,,0xFF
"Axon Recover Micro D0","data",8.5138838,0.0009895,"framing",0x98
"Axon Recover Micro D0","data",8.514911,0.0009895,,0x22
"Axon Recover Micro D0","data",8.5159146,0.0009895,,0xFF
"Axon Recover Micro D0","data",8.5458793,0.0009895,,0x18
"Axon Recover Micro D0","data",8.5468802,0.0009895,"framing",0xE9
"Axon Recover Micro D0","data",8.5479087,0.0009895,,0xDF
"Axon Recover Micro D0","data",8.5778769,0.0009895,,0x98
"Axon Recover Micro D0","data",8.5788785,0.0009895,"framing",0xE1
"Axon Recover Micro D0","data",8.5799068,0.0009895,,0xDF
"Axon Recover Micro D0","data",8.6098791,0.0009895,,0x18
"Axon Recover Micro D0","data",8.610898,0.0009895,,0xBF
"Axon Recover Micro D0","data",8.61191,0.0009895,,0xDF
"Axon Recover Micro D0","data",8.6468803,0.0009895,"framing",0x1C
"Axon Recover Micro D0","data",8.6478986,0.0009895,"framing",0x1E
"Axon Recover Micro D0","data",8.6489108,0.0009895,,0xDF
"Axon Recover Micro D0","data",8.6808789,0.0009895,,0x9C
"Axon Recover Micro D0","data",8.6818888,0.0009895,,0xB2
"Axon Recover Micro D0","data",8.6828825,0.0009895,,0xFF
"Axon Recover Micro D0","data",8.7148743,0.0009895,,0x1C
"Axon Recover Micro D0","data",8.7158921,0.0009895,"framing",0xBA
"Axon Recover Micro D0","data",8.7169045,0.0009895,,0xFF
"Axon Recover Micro D0","data",8.7468809,0.0009895,,0x1C
"Axon Recover Micro D0","data",8.7478735,0.0009895,"framing",0xC3
"Axon Recover Micro D0","data",8.7489112,0.0009895,,0xDF
"Axon Recover Micro D0","data",8.7838812,0.0009895,"framing",0x1C
"Axon Recover Micro D0","data",8.7849081,0.0009895,,0xFE
"Axon Recover Micro D0","data",8.785912,0.0009895,,0xFF
"Axon Recover Micro D0","data",8.8158812,0.0009895,,0x1C
"Axon Recover Micro D0","data",8.8168751,0.0009895,,0xA3
"Axon Recover Micro D0","data",8.8178852,0.0009895,,0xFF
"Axon Recover Micro D0","data",8.8488792,0.0009895,,0x1C
"Axon Recover Micro D0","data",8.8498801,0.0009895,"framing",0x7D
"Axon Recover Micro D0","data",8.8509096,0.0009895,,0xDF
"Axon Recover Micro D0","data",8.880876,0.0009895,"framing",0x1C
"Axon Recover Micro D0","data",8.8819018,0.0009895,,0x5C
"Axon Recover Micro D0","data",8.8829063,0.0009895,,0xDF
"Axon Recover Micro D0","data",8.9128782,0.0009895,"framing",0x18
"Axon Recover Micro D0","data",8.9138879,0.0009895,"framing",0x7A
"Axon Recover Micro D0","data",8.9149067,0.0009895,,0xFF
"Axon Recover Micro D0","data",8.9448779,0.0009895,"framing",0x18
"Axon Recover Micro D0","data",8.9459119,0.0009895,,0x99
"Axon Recover Micro D0","data",8.9469074,0.0009895,,0xFF
"Axon Recover Micro D0","data",8.9768765,0.0009895,,0x18
"Axon Recover Micro D0","data",8.9778947,0.0009895,"framing",0x8D
"Axon Recover Micro D0","data",8.9789072,0.0009895,,0xFF
"Axon Recover Micro D0","data",9.0088795,0.0009895,,0x18
"Axon Recover Micro D0","data",9.0098896,0.0009895,"framing",0x76
"Axon Recover Micro D0","data",9.01091,0.0009895,,0xFF
"Axon Recover Micro D0","data",9.0408774,0.0009895,"framing",0x18
"Axon Recover Micro D0","data",9.0418962,0.0009895,"framing",0x69
"Axon Recover Micro D0","data",9.0429078,0.0009895,,0xDF
"Axon Recover Micro D0","data",9.0728714,0.0009895,"framing",0x18
"Axon Recover Micro D0","data",9.0739349,0.0009895,"framing",0x3D
"Axon Recover Micro D0","data",9.074946,0.0009895,,0xFF
"Axon Recover Micro D0","data",9.1078759,0.0009895,,0x18
"Axon Recover Micro D0","data",9.1088686,0.0009895,,0x3B
"Axon Recover Micro D0","data",9.1098785,0.0009895,,0xFF
"Axon Recover Micro D0","data",9.1388744,0.0009895,,0x98
"Axon Recover Micro D0","data",9.139867,0.0009895,,0x13
"Axon Recover Micro D0","data",9.1408682,0.0009895,,0xFF
"Axon Recover Micro D0","data",9.1698695,0.0009895,"framing",0x1C
"Axon Recover Micro D0","data",9.1708889,0.0009895,"framing",0x18
"Axon Recover Micro D0","data",9.1719007,0.0009895,,0xFF
"Axon Recover Micro D0","data",9.2038691,0.0009895,"framing",0x9C
"Axon Recover Micro D0","data",9.2049057,0.0009895,,0xB0
"Axon Recover Micro D0","data",9.2059005,0.0009895,,0xDF
"Axon Recover Micro D0","data",9.2398765,0.0009895,"framing",0x3C
"Axon Recover Micro D0","data",9.2408864,0.0009895,,0x82
"Axon Recover Micro D0","data",9.2418789,0.0009895,,0xFF
"Axon Recover Micro D0","data",9.2718706,0.0009895,"framing",0x1C
"Axon Recover Micro D0","data",9.2728968,0.0009895,,0xBE
"Axon Recover Micro D0","data",9.2739008,0.0009895,,0xDF
"Axon Recover Micro D0","data",9.3048719,0.0009895,"framing",0xBC
