name,type,start_time,duration,"error","data"
"Axon Recover Micro D0 115200","data",5.7129171,0.0000824,,0x01
"Axon Recover Micro D0 115200","data",5.7130132,0.0000824,,0x02
"Axon Recover Micro D0 115200","data",5.7131094,0.0000824,,0x03
"Axon Recover Micro D0 115200","data",5.7132057,0.0000824,,0x04
"Axon Recover Micro D0 115200","data",5.7134354,0.0000824,,0x56
"Axon Recover Micro D0 115200","data",5.7135299,0.0000824,,0x30
"Axon Recover Micro D0 115200","data",5.7136245,0.0000824,,0x2E
"Axon Recover Micro D0 115200","data",5.7137191,0.0000824,,0x33
"Axon Recover Micro D0 115200","data",5.7138136,0.0000824,,0x08
"Axon Recover Micro D0 115200","data",5.7139082,0.0000824,,0x01
"Axon Recover Micro D0 115200","data",5.7439043,0.0000824,,0xCC
"Axon Recover Micro D0 115200","data",5.744001,0.0000824,,0x89
"Axon Recover Micro D0 115200","data",5.7440975,0.0000824,,0xC9
"Axon Recover Micro D0 115200","data",5.7441943,0.0000824,,0xD7
"Axon Recover Micro D0 115200","data",5.7442914,0.0000824,,0xD7
"Axon Recover Micro D0 115200","data",5.7443884,0.0000824,,0x4C
"Axon Recover Micro D0 115200","data",5.7444849,0.0000824,,0x98
"Axon Recover Micro D0 115200","data",5.7445814,0.0000824,,0xC1
"Axon Recover Micro D0 115200","data",5.744678,0.0000824,,0xB1
"Axon Recover Micro D0 115200","data",5.7447747,0.0000824,,0xF4
"Axon Recover Micro D0 115200","data",5.7448715,0.0000824,,0x7A
"Axon Recover Micro D0 115200","data",5.7449684,0.0000824,,0x8E
"Axon Recover Micro D0 115200","data",5.745065,0.0000824,,0x66
"Axon Recover Micro D0 115200","data",5.7451617,0.0000824,,0x7F
"Axon Recover Micro D0 115200","data",5.745259,0.0000824,,0xFB
"Axon Recover Micro D0 115200","data",5.7453562,0.0000824,,0x82
"Axon Recover Micro D0 115200","data",5.7454525,0.0000824,,0x6A
"Axon Recover Micro D0 115200","data",5.7455492,0.0000824,,0xCD
"Axon Recover Micro D0 115200","data",5.745646,0.0000824,,0x5C
"Axon Recover Micro D0 115200","data",5.7457427,0.0000824,,0x19
"Axon Recover Micro D0 115200","data",5.7458393,0.0000824,,0x21
"Axon Recover Micro D0 115200","data",5.7459356,0.0000824,,0xDD
"Axon Recover Micro D0 115200","data",5.7461685,0.0000824,,0xBB
"Axon Recover Micro D0 115200","data",5.7462631,0.0000824,,0xCA
"Axon Recover Micro D0 115200","data",5.7463576,0.0000824,,0xD9
"Axon Recover Micro D0 115200","data",5.7464522,0.0000824,,0xE8
"Axon Recover Micro D0 115200","data",5.7465468,0.0000824,,0xF7
"Axon Recover Micro D0 115200","data",5.7466413,0.0000824,,0x9C
"Axon Recover Micro D0 115200","data",5.7467359,0.0000824,,0xAB
"Axon Recover Micro D0 115200","data",5.7468304,0.0000824,,0xBA
"Axon Recover Micro D0 115200","data",5.746925,0.0000824,,0xC9
"Axon Recover Micro D0 115200","data",5.7470195,0.0000824,,0xD8
"Axon Recover Micro D0 115200","data",5.7471141,0.0000824,,0xE7
"Axon Recover Micro D0 115200","data",5.7472086,0.0000824,,0xF6
"Axon Recover Micro D0 115200","data",5.7473032,0.0000824,,0x9B
"Axon Recover Micro D0 115200","data",5.7473977,0.0000824,,0xAA
"Axon Recover Micro D0 115200","data",5.7474923,0.0000824,,0xB9
"Axon Recover Micro D0 115200","data",5.7475868,0.0000824,,0xC8
"Axon Recover Micro D0 115200","data",5.7476814,0.0000824,,0xD7
"Axon Recover Micro D0 115200","data",5.7477759,0.0000824,,0xE6
"Axon Recover Micro D0 115200","data",5.7478705,0.0000824,,0xF5
"Axon Recover Micro D0 115200","data",5.7479651,0.0000824,,0x9A
"Axon Recover Micro D0 115200","data",5.7480596,0.0000824,,0xA9
"Axon Recover Micro D0 115200","data",5.7481542,0.0000824,,0xB8
"Axon Recover Micro D0 115200","data",5.7779024,0.0000824,,0x7D
"Axon Recover Micro D0 115200","data",5.7779994,0.0000824,,0x47
"Axon Recover Micro D0 115200","data",5.7780961,0.0000824,,0x10
"Axon Recover Micro D0 115200","data",5.7781924,0.0000824,,0x02
"Axon Recover Micro D0 115200","data",5.7782887,0.0000824,,0x85
"Axon Recover Micro D0 115200","data",5.7783852,0.0000824,,0x91
"Axon Recover Micro D0 115200","data",5.7784818,0.0000824,,0x7B
"Axon Recover Micro D0 115200","data",5.7785788,0.0000824,,0x76
"Axon Recover Micro D0 115200","data",5.7786758,0.0000824,,0x07
"Axon Recover Micro D0 115200","data",5.7787723,0.0000824,,0x7F
"Axon Recover Micro D0 115200","data",5.7788696,0.0000824,,0x79
"Axon Recover Micro D0 115200","data",5.7789665,0.0000824,,0x64
"Axon Recover Micro D0 115200","data",5.7790631,0.0000824,,0xB8
"Axon Recover Micro D0 115200","data",5.7791598,0.0000824,,0x96
"Axon Recover Micro D0 115200","data",5.7792565,0.0000824,,0xAA
"Axon Recover Micro D0 115200","data",5.7793533,0.0000824,,0xE0
"Axon Recover Micro D0 115200","data",5.7794499,0.0000824,,0xCC
"Axon Recover Micro D0 115200","data",5.7795466,0.0000824,,0x72
"Axon Recover Micro D0 115200","data",5.7796433,0.0000824,,0x9E
"Axon Recover Micro D0 115200","data",5.7797403,0.0000824,,0x7C
"Axon Recover Micro D0 115200","data",5.7798372,0.0000824,,0xAC
"Axon Recover Micro D0 115200","data",5.7799339,0.0000824,,0x0A
"Axon Recover Micro D0 115200","data",5.7855029,0.0000824,,0x55
"Axon Recover Micro D0 115200","data",5.8159042,0.0000824,,0x7D
"Axon Recover Micro D0 115200","data",5.8160013,0.0000824,,0x45
"Axon Recover Micro D0 115200","data",5.816098,0.0000824,,0x10
"Axon Recover Micro D0 115200","data",5.8161941,0.0000824,,0x7C
"Axon Recover Micro D0 115200","data",5.816291,0.0000824,,0x73
"Axon Recover Micro D0 115200","data",5.8163879,0.0000824,,0xB3
"Axon Recover Micro D0 115200","data",5.8164848,0.0000824,,0xEE
"Axon Recover Micro D0 115200","data",5.816582,0.0000824,,0x8C
"Axon Recover Micro D0 115200","data",5.8166785,0.0000824,,0x62
"Axon Recover Micro D0 115200","data",5.8167751,0.0000824,,0x23
"Axon Recover Micro D0 115200","data",5.8168716,0.0000824,,0x08
"Axon Recover Micro D0 115200","data",5.8169679,0.0000824,,0x82
"Axon Recover Micro D0 115200","data",5.8170643,0.0000824,,0xD9
"Axon Recover Micro D0 115200","data",5.8171612,0.0000824,,0x46
"Axon Recover Micro D0 115200","data",5.8172579,0.0000824,,0x96
"Axon Recover Micro D0 115200","data",5.8173546,0.0000824,,0x64
"Axon Recover Micro D0 115200","data",5.817451,0.0000824,,0xE0
"Axon Recover Micro D0 115200","data",5.8175476,0.0000824,,0xDA
"Axon Recover Micro D0 115200","data",5.8176446,0.0000824,,0xC1
"Axon Recover Micro D0 115200","data",5.8177411,0.0000824,,0xD3
"Axon Recover Micro D0 115200","data",5.817838,0.0000824,,0x3B
"Axon Recover Micro D0 115200","data",5.8179349,0.0000824,,0x1F
"Axon Recover Micro D0 115200","data",5.8235041,0.0000824,,0x55
"Axon Recover Micro D0 115200","data",5.8589048,0.0000824,,0x7D
"Axon Recover Micro D0 115200","data",5.8590018,0.0000824,,0x4B
"Axon Recover Micro D0 115200","data",5.8590985,0.0000824,,0x10
"Axon Recover Micro D0 115200","data",5.8591948,0.0000824,,0xC0
"Axon Recover Micro D0 115200","data",5.8592912,0.0000824,,0x9B
"Axon Recover Micro D0 115200","data",5.8593881,0.0000824,,0x6C
"Axon Recover Micro D0 115200","data",5.8594848,0.0000824,,0x84
"Axon Recover Micro D0 115200","data",5.8595812,0.0000824,,0x46
"Axon Recover Micro D0 115200","data",5.8596779,0.0000824,,0x83
"Axon Recover Micro D0 115200","data",5.8597744,0.0000824,,0x28
"Axon Recover Micro D0 115200","data",5.8598708,0.0000824,,0xE2
"Axon Recover Micro D0 115200","data",5.8599675,0.0000824,,0x92
"Axon Recover Micro D0 115200","data",5.8600641,0.0000824,,0x88
"Axon Recover Micro D0 115200","data",5.8601605,0.0000824,,0xF8
"Axon Recover Micro D0 115200","data",5.8602574,0.0000824,,0x10
"Axon Recover Micro D0 115200","data",5.8603537,0.0000824,,0xFA
"Axon Recover Micro D0 115200","data",5.8604508,0.0000824,,0x53
"Axon Recover Micro D0 115200","data",5.8605475,0.0000824,,0xAB
"Axon Recover Micro D0 115200","data",5.8606445,0.0000824,,0x4A
"Axon Recover Micro D0 115200","data",5.860741,0.0000824,,0x02
"Axon Recover Micro D0 115200","data",5.8608372,0.0000824,,0x6E
"Axon Recover Micro D0 115200","data",5.8609341,0.0000824,,0x87
"Axon Recover Micro D0 115200","data",5.8664997,0.0000824,,0x55
"Axon Recover Micro D0 115200","data",5.896902,0.0000824,,0x7D
"Axon Recover Micro D0 115200","data",5.896999,0.0000824,,0x49
"Axon Recover Micro D0 115200","data",5.8970956,0.0000824,,0x10
"Axon Recover Micro D0 115200","data",5.8971919,0.0000824,,0x7E
"Axon Recover Micro D0 115200","data",5.8972889,0.0000824,,0xC0
"Axon Recover Micro D0 115200","data",5.8973853,0.0000824,,0x6D
"Axon Recover Micro D0 115200","data",5.8974822,0.0000824,,0xE0
"Axon Recover Micro D0 115200","data",5.8975789,0.0000824,,0x68
"Axon Recover Micro D0 115200","data",5.8976754,0.0000824,,0x57
"Axon Recover Micro D0 115200","data",5.8977723,0.0000824,,0x7F
"Axon Recover Micro D0 115200","data",5.8978695,0.0000824,,0x21
"Axon Recover Micro D0 115200","data",5.8979659,0.0000824,,0x0B
"Axon Recover Micro D0 115200","data",5.8980625,0.0000824,,0xFD
"Axon Recover Micro D0 115200","data",5.8981598,0.0000824,,0xC6
"Axon Recover Micro D0 115200","data",5.8982565,0.0000824,,0xDA
"Axon Recover Micro D0 115200","data",5.8983534,0.0000824,,0xA8
"Axon Recover Micro D0 115200","data",5.8984499,0.0000824,,0x7D
"Axon Recover Micro D0 115200","data",5.8985469,0.0000824,,0xD2
"Axon Recover Micro D0 115200","data",5.8986436,0.0000824,,0x1C
"Axon Recover Micro D0 115200","data",5.8987401,0.0000824,,0xF0
"Axon Recover Micro D0 115200","data",5.8988368,0.0000824,,0x55
"Axon Recover Micro D0 115200","data",5.8989336,0.0000824,,0x11
"Axon Recover Micro D0 115200","data",5.9045011,0.0000824,,0x55
"Axon Recover Micro D0 115200","data",5.9339046,0.0000824,,0x7D
"Axon Recover Micro D0 115200","data",5.9340018,0.0000824,,0x4F
"Axon Recover Micro D0 115200","data",5.9340986,0.0000824,,0x10
"Axon Recover Micro D0 115200","data",5.9341948,0.0000824,,0x22
"Axon Recover Micro D0 115200","data",5.9342912,0.0000824,,0xB8
"Axon Recover Micro D0 115200","data",5.9343881,0.0000824,,0xFB
"Axon Recover Micro D0 115200","data",5.9344852,0.0000824,,0xA2
"Axon Recover Micro D0 115200","data",5.9345818,0.0000824,,0x1D
"Axon Recover Micro D0 115200","data",5.9346785,0.0000824,,0x95
"Axon Recover Micro D0 115200","data",5.9347754,0.0000824,,0x02
"Axon Recover Micro D0 115200","data",5.9348715,0.0000824,,0x2C
"Axon Recover Micro D0 115200","data",5.9349681,0.0000824,,0x9B
"Axon Recover Micro D0 115200","data",5.9350651,0.0000824,,0xB4
"Axon Recover Micro D0 115200","data",5.9351618,0.0000824,,0x30
"Axon Recover Micro D0 115200","data",5.9352582,0.0000824,,0xC8
"Axon Recover Micro D0 115200","data",5.9353547,0.0000824,,0x63
"Axon Recover Micro D0 115200","data",5.9354515,0.0000824,,0xCB
"Axon Recover Micro D0 115200","data",5.9355484,0.0000824,,0x75
"Axon Recover Micro D0 115200","data",5.9356453,0.0000824,,0x75
"Axon Recover Micro D0 115200","data",5.9357421,0.0000824,,0x96
"Axon Recover Micro D0 115200","data",5.9358389,0.0000824,,0x13
"Axon Recover Micro D0 115200","data",5.9359354,0.0000824,,0xE7
"Axon Recover Micro D0 115200","data",5.941505,0.0000824,,0x55
"Axon Recover Micro D0 115200","data",5.9729047,0.0000824,,0x7D
"Axon Recover Micro D0 115200","data",5.9730018,0.0000824,,0x4D
"Axon Recover Micro D0 115200","data",5.9730986,0.0000824,,0x10
"Axon Recover Micro D0 115200","data",5.9731948,0.0000824,,0x46
"Axon Recover Micro D0 115200","data",5.9732913,0.0000824,,0x24
"Axon Recover Micro D0 115200","data",5.9733877,0.0000824,,0xD2
"Axon Recover Micro D0 115200","data",5.9734846,0.0000824,,0x56
"Axon Recover Micro D0 115200","data",5.9735813,0.0000824,,0x7D
"Axon Recover Micro D0 115200","data",5.9736783,0.0000824,,0xAB
"Axon Recover Micro D0 115200","data",5.9737752,0.0000824,,0xD8
"Axon Recover Micro D0 115200","data",5.9738719,0.0000824,,0x9B
"Axon Recover Micro D0 115200","data",5.9739689,0.0000824,,0xBD
"Axon Recover Micro D0 115200","data",5.9740659,0.0000824,,0x9E
"Axon Recover Micro D0 115200","data",5.9741628,0.0000824,,0x24
"Axon Recover Micro D0 115200","data",5.9742592,0.0000824,,0xD0
"Axon Recover Micro D0 115200","data",5.9743559,0.0000824,,0x9A
"Axon Recover Micro D0 115200","data",5.9744525,0.0000824,,0xEF
"Axon Recover Micro D0 115200","data",5.9745498,0.0000824,,0xFA
"Axon Recover Micro D0 115200","data",5.9746467,0.0000824,,0xF4
"Axon Recover Micro D0 115200","data",5.9747436,0.0000824,,0x49
"Axon Recover Micro D0 115200","data",5.9748401,0.0000824,,0x3D
"Axon Recover Micro D0 115200","data",5.9749369,0.0000824,,0x09
"Axon Recover Micro D0 115200","data",5.9805033,0.0000824,,0x55
"Axon Recover Micro D0 115200","data",6.014906,0.0000824,,0x7D
"Axon Recover Micro D0 115200","data",6.0150032,0.0000824,,0x53
"Axon Recover Micro D0 115200","data",6.0150999,0.0000824,,0x10
"Axon Recover Micro D0 115200","data",6.0151961,0.0000824,,0x00
"Axon Recover Micro D0 115200","data",6.0152922,0.0000824,,0xBF
"Axon Recover Micro D0 115200","data",6.0153894,0.0000824,,0xFE
"Axon Recover Micro D0 115200","data",6.0154866,0.0000824,,0x65
"Axon Recover Micro D0 115200","data",6.0155833,0.0000824,,0x23
"Axon Recover Micro D0 115200","data",6.0156798,0.0000824,,0xB8
"Axon Recover Micro D0 115200","data",6.0157765,0.0000824,,0x2F
"Axon Recover Micro D0 115200","data",6.0158734,0.0000824,,0xB9
"Axon Recover Micro D0 115200","data",6.0159702,0.0000824,,0x64
"Axon Recover Micro D0 115200","data",6.0160668,0.0000824,,0x85
"Axon Recover Micro D0 115200","data",6.0161633,0.0000824,,0x9E
"Axon Recover Micro D0 115200","data",6.0162601,0.0000824,,0xDD
"Axon Recover Micro D0 115200","data",6.0163572,0.0000824,,0xB7
"Axon Recover Micro D0 115200","data",6.0164542,0.0000824,,0x52
"Axon Recover Micro D0 115200","data",6.0165507,0.0000824,,0x70
"Axon Recover Micro D0 115200","data",6.0166473,0.0000824,,0x7C
"Axon Recover Micro D0 115200","data",6.0167441,0.0000824,,0x48
"Axon Recover Micro D0 115200","data",6.0168405,0.0000824,,0xC8
"Axon Recover Micro D0 115200","data",6.0169369,0.0000824,,0x96
"Axon Recover Micro D0 115200","data",6.0225013,0.0000824,,0x55
"Axon Recover Micro D0 115200","data",6.0529044,0.0000824,,0x7D
"Axon Recover Micro D0 115200","data",6.0530016,0.0000824,,0x51
"Axon Recover Micro D0 115200","data",6.0530981,0.0000824,,0x10
"Axon Recover Micro D0 115200","data",6.0531943,0.0000824,,0xC4
"Axon Recover Micro D0 115200","data",6.0532909,0.0000824,,0xC9
"Axon Recover Micro D0 115200","data",6.0533876,0.0000824,,0x3D
"Axon Recover Micro D0 115200","data",6.0534845,0.0000824,,0xCB
"Axon Recover Micro D0 115200","data",6.0535814,0.0000824,,0x69
"Axon Recover Micro D0 115200","data",6.0536781,0.0000824,,0x33
"Axon Recover Micro D0 115200","data",6.0537748,0.0000824,,0x13
"Axon Recover Micro D0 115200","data",6.0538713,0.0000824,,0xAC
"Axon Recover Micro D0 115200","data",6.053968,0.0000824,,0x02
"Axon Recover Micro D0 115200","data",6.0540641,0.0000824,,0xDC
"Axon Recover Micro D0 115200","data",6.054161,0.0000824,,0xF4
"Axon Recover Micro D0 115200","data",6.0542578,0.0000824,,0x05
"Axon Recover Micro D0 115200","data",6.0543542,0.0000824,,0xE7
"Axon Recover Micro D0 115200","data",6.0544513,0.0000824,,0xD7
"Axon Recover Micro D0 115200","data",6.0545482,0.0000824,,0x7E
"Axon Recover Micro D0 115200","data",6.0546453,0.0000824,,0x06
"Axon Recover Micro D0 115200","data",6.0547416,0.0000824,,0x7B
"Axon Recover Micro D0 115200","data",6.0548387,0.0000824,,0xC0
"Axon Recover Micro D0 115200","data",6.054935,0.0000824,,0x43
"Axon Recover Micro D0 115200","data",6.0605027,0.0000824,,0x55
"Axon Recover Micro D0 115200","data",6.0919034,0.0000824,,0x7D
"Axon Recover Micro D0 115200","data",6.0920005,0.0000824,,0x57
"Axon Recover Micro D0 115200","data",6.0920974,0.0000824,,0x10
"Axon Recover Micro D0 115200","data",6.0921936,0.0000824,,0x36
"Axon Recover Micro D0 115200","data",6.0922903,0.0000824,,0x06
"Axon Recover Micro D0 115200","data",6.0923868,0.0000824,,0xB6
"Axon Recover Micro D0 115200","data",6.0924837,0.0000824,,0xB0
"Axon Recover Micro D0 115200","data",6.0925802,0.0000824,,0xB2
"Axon Recover Micro D0 115200","data",6.0926771,0.0000824,,0x9D
"Axon Recover Micro D0 115200","data",6.0927739,0.0000824,,0xE9
"Axon Recover Micro D0 115200","data",6.0928708,0.0000824,,0x66
"Axon Recover Micro D0 115200","data",6.0929675,0.0000824,,0xEF
"Axon Recover Micro D0 115200","data",6.0930649,0.0000824,,0x1E
"Axon Recover Micro D0 115200","data",6.0931615,0.0000824,,0x19
"Axon Recover Micro D0 115200","data",6.0932581,0.0000824,,0x18
"Axon Recover Micro D0 115200","data",6.0933545,0.0000824,,0x71
"Axon Recover Micro D0 115200","data",6.0934512,0.0000824,,0x38
"Axon Recover Micro D0 115200","data",6.0935478,0.0000824,,0x8B
"Axon Recover Micro D0 115200","data",6.0936445,0.0000824,,0x2B
"Axon Recover Micro D0 115200","data",6.0937412,0.0000824,,0x15
"Axon Recover Micro D0 115200","data",6.0938379,0.0000824,,0x39
"Axon Recover Micro D0 115200","data",6.0939346,0.0000824,,0x49
"Axon Recover Micro D0 115200","data",6.0995007,0.0000824,,0x55
"Axon Recover Micro D0 115200","data",6.1329048,0.0000824,,0x7D
"Axon Recover Micro D0 115200","data",6.133002,0.0000824,,0x55
"Axon Recover Micro D0 115200","data",6.1330987,0.0000824,,0x10
"Axon Recover Micro D0 115200","data",6.1331949,0.0000824,,0x25
"Axon Recover Micro D0 115200","data",6.1332915,0.0000824,,0x19
"Axon Recover Micro D0 115200","data",6.133388,0.0000824,,0xE7
"Axon Recover Micro D0 115200","data",6.133485,0.0000824,,0x0A
"Axon Recover Micro D0 115200","data",6.1335814,0.0000824,,0x16
"Axon Recover Micro D0 115200","data",6.133678,0.0000824,,0xCE
"Axon Recover Micro D0 115200","data",6.1337748,0.0000824,,0x87
"Axon Recover Micro D0 115200","data",6.1338715,0.0000824,,0x14
"Axon Recover Micro D0 115200","data",6.1339678,0.0000824,,0xE2
"Axon Recover Micro D0 115200","data",6.1340645,0.0000824,,0x08
"Axon Recover Micro D0 115200","data",6.1341608,0.0000824,,0x60
"Axon Recover Micro D0 115200","data",6.134257,0.0000824,,0x77
"Axon Recover Micro D0 115200","data",6.1343541,0.0000824,,0x6B
"Axon Recover Micro D0 115200","data",6.134451,0.0000824,,0xED
"Axon Recover Micro D0 115200","data",6.134548,0.0000824,,0xB6
"Axon Recover Micro D0 115200","data",6.1346449,0.0000824,,0x9D
"Axon Recover Micro D0 115200","data",6.1347419,0.0000824,,0x24
"Axon Recover Micro D0 115200","data",6.1348383,0.0000824,,0x2D
"Axon Recover Micro D0 115200","data",6.134935,0.0000824,,0x1D
"Axon Recover Micro D0 115200","data",6.1405019,0.0000824,,0x55
"Axon Recover Micro D0 115200","data",6.1699051,0.0000824,,0x7D
"Axon Recover Micro D0 115200","data",6.1700021,0.0000824,,0x5B
"Axon Recover Micro D0 115200","data",6.1700991,0.0000824,,0x10
"Axon Recover Micro D0 115200","data",6.1701953,0.0000824,,0xAC
"Axon Recover Micro D0 115200","data",6.170292,0.0000824,,0x75
"Axon Recover Micro D0 115200","data",6.1703889,0.0000824,,0x84
"Axon Recover Micro D0 115200","data",6.1704853,0.0000824,,0xD3
"Axon Recover Micro D0 115200","data",6.1705823,0.0000824,,0xC4
"Axon Recover Micro D0 115200","data",6.1706788,0.0000824,,0x3D
"Axon Recover Micro D0 115200","data",6.1707757,0.0000824,,0x6E
"Axon Recover Micro D0 115200","data",6.1708726,0.0000824,,0x3A
"Axon Recover Micro D0 115200","data",6.1709694,0.0000824,,0xFC
"Axon Recover Micro D0 115200","data",6.1710665,0.0000824,,0x46
"Axon Recover Micro D0 115200","data",6.171163,0.0000824,,0xF5
"Axon Recover Micro D0 115200","data",6.1712602,0.0000824,,0x80
"Axon Recover Micro D0 115200","data",6.1713563,0.0000824,,0xD3
"Axon Recover Micro D0 115200","data",6.1714532,0.0000824,,0x1F
"Axon Recover Micro D0 115200","data",6.17155,0.0000824,,0xFF
"Axon Recover Micro D0 115200","data",6.1716474,0.0000824,,0x3C
"Axon Recover Micro D0 115200","data",6.1717442,0.0000824,,0xB5
"Axon Recover Micro D0 115200","data",6.1718409,0.0000824,,0x93
"Axon Recover Micro D0 115200","data",6.1719377,0.0000824,,0x4A
"Axon Recover Micro D0 115200","data",6.1775062,0.0000824,,0x55
"Axon Recover Micro D0 115200","data",6.2078999,0.0000824,,0x7D
"Axon Recover Micro D0 115200","data",6.2079969,0.0000824,,0x59
"Axon Recover Micro D0 115200","data",6.2080938,0.0000824,,0x10
"Axon Recover Micro D0 115200","data",6.20819,0.0000824,,0xC6
"Axon Recover Micro D0 115200","data",6.2082867,0.0000824,,0x7E
