Time [s],Value,Parity Error,Framing Error
0.104366000000000,0xFF,,
0.105522000000000,0xFF,,
0.106677000000000,0x01,,
0.107833000000000,0x04,,
0.108989500000000,0x8A,,
0.110146000000000,0x00,,
0.111304000000000,0x04,,
0.112462250000000,0x6C,,
0.113759000000000,0xFF,,
0.114905500000000,0xFF,,
0.116050500000000,0x01,,
0.117195500000000,0x06,,
0.118340500000000,0x00,,
0.119486250000000,0x04,,
0.120631250000000,0x02,,
0.121776750000000,0x01,,
0.122922250000000,0x08,,
0.124067250000000,0xE9,,
0.130085000000000,0x00,,Error
0.470367750000000,0xFF,,
0.471524000000000,0xFF,,
0.472679750000000,0x01,,
0.473835250000000,0x04,,
0.474991500000000,0x8A,,
0.476147750000000,0x00,,
0.477305750000000,0x04,,
0.478464500000000,0x6C,,
0.479762000000000,0xFF,,
0.480908250000000,0xFF,,
0.482053500000000,0x01,,
0.483198250000000,0x06,,
0.484343500000000,0x00,,
0.485489000000000,0x04,,
0.486634250000000,0x02,,
0.487779500000000,0x01,,
0.488925000000000,0x08,,
0.490070000000000,0xE9,,
0.496090250000000,0x00,,Error
0.790359750000000,0xFF,,
0.791515750000000,0xFF,,
0.792672000000000,0x01,,
0.793827750000000,0x04,,
0.794983750000000,0x8A,,
0.796140000000000,0x00,,
0.797297750000000,0x04,,
0.798456000000000,0x6C,,
0.799754000000000,0xFF,,
0.800900500000000,0xFF,,
0.802046000000000,0x01,,
0.803191000000000,0x06,,
0.804336500000000,0x00,,
0.805482000000000,0x04,,
0.806628000000000,0x02,,
0.807773250000000,0x01,,
0.808918750000000,0x08,,
0.810064000000000,0xE9,,
0.816085500000000,0x00,,Error
1.108357250000000,0xFF,,
1.109513250000000,0xFF,,
1.110669500000000,0x01,,
1.111825750000000,0x04,,
1.112982500000000,0x8A,,
1.114138250000000,0x00,,
1.115296250000000,0x04,,
1.116455000000000,0x6C,,
1.117752000000000,0xFF,,
1.118898250000000,0xFF,,
1.120043750000000,0x01,,
1.121188750000000,0x06,,
1.122334250000000,0x00,,
1.123479750000000,0x04,,
1.124625500000000,0x02,,
1.125771000000000,0x01,,
1.126916500000000,0x08,,
1.128061750000000,0xE9,,
1.134082250000000,0x00,,Error
1.414352500000000,0xFF,,
1.415508500000000,0xFF,,
1.416664750000000,0x01,,
1.417820750000000,0x04,,
1.418977750000000,0x8A,,
1.420133500000000,0x00,,
1.421291250000000,0x04,,
1.422449750000000,0x6C,,
1.423746500000000,0xFF,,
1.424893000000000,0xFF,,
1.426038000000000,0x01,,
1.427183000000000,0x06,,
1.428327750000000,0x00,,
1.429473500000000,0x04,,
1.430618750000000,0x02,,
1.431764000000000,0x01,,
1.432909500000000,0x08,,
1.434054500000000,0xE9,,
1.440072500000000,0x00,,Error
1.733349500000000,0xFF,,
1.734505000000000,0xFF,,
1.735660750000000,0x01,,
1.736818500000000,0x04,,
1.737974750000000,0x8A,,
1.739131000000000,0x00,,
1.740289250000000,0x04,,
1.741447750000000,0x6C,,
1.742743750000000,0xFF,,
1.743890500000000,0xFF,,
1.745035250000000,0x01,,
1.746180500000000,0x06,,
1.747325500000000,0x00,,
1.748471250000000,0x04,,
1.749616250000000,0x02,,
1.750761750000000,0x01,,
1.751907500000000,0x08,,
1.753052500000000,0xE9,,
1.759072000000000,0x00,,Error
2.094346000000000,0xFF,,
2.095501500000000,0xFF,,
2.096656500000000,0x01,,
2.097814000000000,0x04,,
2.098970750000000,0x8A,,
2.100127250000000,0x00,,
2.101285750000000,0x04,,
2.102444500000000,0x6C,,
2.103738250000000,0xFF,,
2.104884750000000,0xFF,,
2.106029750000000,0x01,,
2.107175250000000,0x06,,
2.108320000000000,0x00,,
2.109466250000000,0x04,,
2.110611250000000,0x02,,
2.111756750000000,0x01,,
2.112902250000000,0x08,,
2.114047250000000,0xE9,,
2.120067000000000,0x00,,Error
2.452342750000000,0xFF,,
2.453499000000000,0xFF,,
2.454654500000000,0x01,,
2.455810750000000,0x04,,
2.456966750000000,0x8A,,
2.458123500000000,0x00,,
2.459282250000000,0x04,,
2.460440750000000,0x6C,,
2.461736500000000,0xFF,,
2.462882750000000,0xFF,,
2.464028000000000,0x01,,
2.465172750000000,0x06,,
2.466318000000000,0x00,,
2.467463500000000,0x04,,
2.468608750000000,0x02,,
2.469754250000000,0x01,,
2.470899750000000,0x08,,
2.472044750000000,0xE9,,
2.478064500000000,0x00,,Error
2.763340750000000,0xFF,,
2.764497000000000,0xFF,,
2.765653250000000,0x01,,
2.766809500000000,0x04,,
2.767966000000000,0x8A,,
2.769122000000000,0x00,,
2.770280250000000,0x04,,
2.771438750000000,0x6C,,
2.772735000000000,0xFF,,
2.773881250000000,0xFF,,
2.775026750000000,0x01,,
2.776171750000000,0x06,,
2.777317250000000,0x00,,
2.778463000000000,0x04,,
2.779608750000000,0x02,,
2.780754000000000,0x01,,
2.781899500000000,0x08,,
2.783044750000000,0xE9,,
2.789064000000000,0x00,,Error
3.102335500000000,0xFF,,
3.103491250000000,0xFF,,
3.104647250000000,0x01,,
3.105802750000000,0x04,,
3.106959750000000,0x8A,,
3.108115750000000,0x00,,
3.109273750000000,0x04,,
3.110432250000000,0x6C,,
3.111729750000000,0xFF,,
3.112876000000000,0xFF,,
3.114021000000000,0x01,,
3.115166000000000,0x06,,
3.116311000000000,0x00,,
3.117456750000000,0x04,,
3.118602000000000,0x02,,
3.119747500000000,0x01,,
3.120893000000000,0x08,,
3.122038000000000,0xE9,,
3.128057000000000,0x00,,Error
3.439330250000000,0xFF,,
3.440486000000000,0xFF,,
3.441641750000000,0x01,,
3.442797750000000,0x04,,
3.443955000000000,0x8A,,
3.445111000000000,0x00,,
3.446270500000000,0x04,,
3.447430000000000,0x6C,,
3.448722750000000,0xFF,,
3.449869250000000,0xFF,,
3.451014250000000,0x01,,
3.452159250000000,0x06,,
3.453304000000000,0x00,,
3.454449750000000,0x04,,
3.455594750000000,0x02,,
3.456740250000000,0x01,,
3.457885750000000,0x08,,
3.459030750000000,0xE9,,
3.465051250000000,0x00,,Error
3.762327250000000,0xFF,,
3.763482500000000,0xFF,,
3.764638000000000,0x01,,
3.765794250000000,0x04,,
3.766951500000000,0x8A,,
3.768107500000000,0x00,,
3.769266750000000,0x04,,
3.770426250000000,0x6C,,
3.771719500000000,0xFF,,
3.772866000000000,0xFF,,
3.774010750000000,0x01,,
3.775155750000000,0x06,,
3.776300750000000,0x00,,
3.777446500000000,0x04,,
3.778591500000000,0x02,,
3.779737000000000,0x01,,
3.780882750000000,0x08,,
3.782027750000000,0xE9,,
3.788047000000000,0x00,,Error
4.129326750000000,0xFF,,
4.130482250000000,0xFF,,
4.131637250000000,0x01,,
4.132794250000000,0x04,,
4.133951250000000,0x8A,,
4.135107750000000,0x00,,
4.136266000000000,0x04,,
4.137424750000000,0x6C,,
4.138720500000000,0xFF,,
4.139866750000000,0xFF,,
4.141011750000000,0x01,,
4.142156750000000,0x06,,
4.143301750000000,0x00,,
4.144447250000000,0x04,,
4.145592500000000,0x02,,
4.146738000000000,0x01,,
4.147883250000000,0x08,,
4.149028250000000,0xE9,,
4.155047250000000,0x00,,Error
4.440323500000000,0xFF,,
4.441479750000000,0xFF,,
4.442635250000000,0x01,,
4.443791500000000,0x04,,
4.444948250000000,0x8A,,
4.446105250000000,0x00,,
4.447264000000000,0x04,,
4.448422500000000,0x6C,,
4.449716500000000,0xFF,,
4.450863000000000,0xFF,,
4.452008000000000,0x01,,
4.453153000000000,0x06,,
4.454298000000000,0x00,,
4.455443750000000,0x04,,
4.456588750000000,0x02,,
4.457734250000000,0x01,,
4.458880000000000,0x08,,
4.460025000000000,0xE9,,
4.466045250000000,0x00,,Error
4.751325500000000,0xFF,,
4.752482000000000,0xFF,,
4.753638000000000,0x01,,
4.754793500000000,0x04,,
4.755949750000000,0x8A,,
4.757106500000000,0x00,,
4.758265250000000,0x04,,
4.759423500000000,0x6C,,
4.760720000000000,0xFF,,
4.761866500000000,0xFF,,
4.763011500000000,0x01,,
4.764156500000000,0x06,,
4.765301500000000,0x00,,
4.766447250000000,0x04,,
4.767592500000000,0x02,,
4.768738000000000,0x01,,
4.769883500000000,0x08,,
4.771028500000000,0xE9,,
4.777047250000000,0x00,,Error
5.071315750000000,0xFF,,
5.072471250000000,0xFF,,
5.073627000000000,0x01,,
5.074784750000000,0x04,,
5.075941500000000,0x8A,,
5.077097500000000,0x00,,
5.078255750000000,0x04,,
5.079414500000000,0x6C,,
5.080710000000000,0xFF,,
5.081856250000000,0xFF,,
5.083001250000000,0x01,,
5.084146250000000,0x06,,
5.085291250000000,0x00,,
5.086436750000000,0x04,,
5.087581750000000,0x02,,
5.088727250000000,0x01,,
5.089872500000000,0x08,,
5.091017500000000,0xE9,,
5.097036250000000,0x00,,Error
5.377317000000000,0xFF,,
5.378472750000000,0xFF,,
5.379628750000000,0x01,,
5.380784250000000,0x04,,
5.381940500000000,0x8A,,
5.383096500000000,0x00,,
5.384254750000000,0x04,,
5.385413750000000,0x6C,,
5.386710750000000,0xFF,,
5.387857250000000,0xFF,,
5.389002250000000,0x01,,
5.390147250000000,0x06,,
5.391292250000000,0x00,,
5.392438000000000,0x04,,
5.393583000000000,0x02,,
5.394728500000000,0x01,,
5.395874000000000,0x08,,
5.397019000000000,0xE9,,
5.403037250000000,0x00,,Error
5.689307750000000,0xFF,,
5.690462750000000,0xFF,,
5.691618500000000,0x01,,
5.692774500000000,0x04,,
5.693931750000000,0x8A,,
5.695087500000000,0x00,,
5.696246500000000,0x04,,
5.697406500000000,0x6C,,
5.698700000000000,0xFF,,
5.699846500000000,0xFF,,
5.700991250000000,0x01,,
5.702136500000000,0x06,,
5.703281250000000,0x00,,
5.704427000000000,0x04,,
5.705572000000000,0x02,,
5.706717250000000,0x01,,
5.707863000000000,0x08,,
5.709007750000000,0xE9,,
5.715027250000000,0x00,,Error
6.014308750000000,0xFF,,
6.015465000000000,0xFF,,
6.016621250000000,0x01,,
6.017777250000000,0x04,,
6.018934250000000,0x8A,,
6.020090250000000,0x00,,
6.021248000000000,0x04,,
6.022406500000000,0x6C,,
6.023703000000000,0xFF,,
6.024849250000000,0xFF,,
6.025994750000000,0x01,,
6.027139750000000,0x06,,
6.028285250000000,0x00,,
6.029430750000000,0x04,,
6.030576500000000,0x02,,
6.031722000000000,0x01,,
6.032867500000000,0x08,,
6.034012750000000,0xE9,,
6.040031500000000,0x00,,Error
6.318301750000000,0xFF,,
6.319457500000000,0xFF,,
6.320613250000000,0x01,,
6.321769250000000,0x04,,
6.322926500000000,0x8A,,
6.324083000000000,0x00,,
6.325242000000000,0x04,,
6.326401250000000,0x6C,,
6.327694750000000,0xFF,,
6.328841250000000,0xFF,,
6.329986250000000,0x01,,
6.331131500000000,0x06,,
6.332276250000000,0x00,,
6.333422250000000,0x04,,
6.334567250000000,0x02,,
6.335712750000000,0x01,,
6.336858500000000,0x08,,
6.338003500000000,0xE9,,
6.344022500000000,0x00,,Error
6.624305250000000,0xFF,,
6.625460750000000,0xFF,,
6.626616500000000,0x01,,
6.627774000000000,0x04,,
6.628930750000000,0x8A,,
6.630086750000000,0x00,,
6.631245000000000,0x04,,
6.632403500000000,0x6C,,
6.633700000000000,0xFF,,
6.634846250000000,0xFF,,
6.635992000000000,0x01,,
6.637137000000000,0x06,,
6.638282500000000,0x00,,
6.639428250000000,0x04,,
6.640574000000000,0x02,,
6.641719500000000,0x01,,
6.642865000000000,0x08,,
6.644010250000000,0xE9,,
6.650030000000000,0x00,,Error
6.937298500000000,0xFF,,
6.938454250000000,0xFF,,
6.939609500000000,0x01,,
6.940767000000000,0x04,,
6.941923750000000,0x8A,,
6.943080000000000,0x00,,
6.944238000000000,0x04,,
6.945396500000000,0x6C,,
6.946691500000000,0xFF,,
6.947838000000000,0xFF,,
6.948983000000000,0x01,,
6.950128000000000,0x06,,
6.951272750000000,0x00,,
6.952418500000000,0x04,,
6.953563500000000,0x02,,
6.954708750000000,0x01,,
6.955854500000000,0x08,,
6.956999250000000,0xE9,,
6.963018750000000,0x00,,Error
7.327297750000000,0xFF,,
7.328454250000000,0xFF,,
7.329610000000000,0x01,,
7.330766000000000,0x04,,
7.331922250000000,0x8A,,
7.333079000000000,0x00,,
7.334237250000000,0x04,,
7.335395500000000,0x6C,,
7.336691000000000,0xFF,,
7.337837500000000,0xFF,,
7.338982250000000,0x01,,
7.340127250000000,0x06,,
7.341272250000000,0x00,,
7.342417750000000,0x04,,
7.343563000000000,0x02,,
7.344708250000000,0x01,,
7.345853750000000,0x08,,
7.346998750000000,0xE9,,
7.353017750000000,0x00,,Error
7.565294000000000,0xFF,,
7.566449500000000,0xFF,,
7.567605000000000,0x01,,
7.568762750000000,0x04,,
7.569918750000000,0x8A,,
7.571075000000000,0x00,,
7.572233250000000,0x04,,
7.573391750000000,0x6C,,
7.574687500000000,0xFF,,
7.575833750000000,0xFF,,
7.576978750000000,0x01,,
7.578123750000000,0x06,,
7.579268750000000,0x00,,
7.580414250000000,0x04,,
7.581559250000000,0x02,,
7.582704750000000,0x01,,
7.583850000000000,0x08,,
7.584995000000000,0xE9,,
7.591013500000000,0x00,,Error
7.879289750000000,0xFF,,
7.880445500000000,0xFF,,
7.881602000000000,0x01,,
7.882758000000000,0x04,,
7.883914750000000,0x8A,,
7.885070500000000,0x00,,
7.886228500000000,0x04,,
7.887387500000000,0x6C,,
7.888684250000000,0xFF,,
7.889830750000000,0xFF,,
7.890975750000000,0x01,,
7.892120750000000,0x06,,
7.893266000000000,0x00,,
7.894411500000000,0x04,,
7.895556750000000,0x02,,
7.896702250000000,0x01,,
7.897847750000000,0x08,,
7.898993000000000,0xE9,,
7.905012750000000,0x00,,Error
8.198285000000000,0xFF,,
8.199440750000001,0xFF,,
8.200596750000001,0x01,,
8.201753000000000,0x04,,
8.202909000000000,0x8A,,
8.204065249999999,0x00,,
8.205223250000000,0x04,,
8.206381750000000,0x6C,,
8.207679000000001,0xFF,,
8.208825500000000,0xFF,,
8.209970999999999,0x01,,
8.211116000000001,0x06,,
8.212261500000000,0x00,,
8.213407000000000,0x04,,
8.214552749999999,0x02,,
8.215698250000001,0x01,,
8.216843750000001,0x08,,
8.217988750000000,0xE9,,
8.224007750000000,0x00,,Error
8.501282249999999,0xFF,,
8.502438250000001,0xFF,,
8.503594500000000,0x01,,
8.504750749999999,0x04,,
8.505907250000000,0x8A,,
8.507063250000000,0x00,,
8.508221250000000,0x04,,
8.509380000000000,0x6C,,
8.510676750000000,0xFF,,
8.511823250000001,0xFF,,
8.512968250000000,0x01,,
8.514113000000000,0x06,,
8.515258250000000,0x00,,
8.516403750000000,0x04,,
8.517549000000001,0x02,,
8.518694500000001,0x01,,
8.519839749999999,0x08,,
8.520984750000000,0xE9,,
8.527005500000000,0x00,,Error
8.834284999999999,0xFF,,
8.835440999999999,0xFF,,
8.836597250000001,0x01,,
8.837752750000000,0x04,,
8.838908999999999,0x8A,,
8.840065500000000,0x00,,
8.841222999999999,0x04,,
8.842381749999999,0x6C,,
8.843679500000000,0xFF,,
8.844825750000000,0xFF,,
8.845971250000000,0x01,,
8.847116249999999,0x06,,
8.848261750000001,0x00,,
8.849407250000001,0x04,,
8.850553000000000,0x02,,
8.851698499999999,0x01,,
8.852843750000000,0x08,,
8.853989000000000,0xE9,,
8.860008250000000,0x00,,Error
9.154281500000000,0xFF,,
9.155436750000000,0xFF,,
9.156592500000000,0x01,,
9.157750000000000,0x04,,
9.158906750000000,0x8A,,
9.160062750000000,0x00,,
9.161221250000001,0x04,,
9.162380000000001,0x6C,,
9.163675250000001,0xFF,,
9.164821750000000,0xFF,,
9.165966750000001,0x01,,
9.167111750000000,0x06,,
9.168256749999999,0x00,,
9.169402500000000,0x04,,
9.170547500000000,0x02,,
9.171692999999999,0x01,,
9.172838750000000,0x08,,
9.173983500000000,0xE9,,
9.180004000000000,0x00,,Error
9.458278000000000,0xFF,,
9.459433750000001,0xFF,,
9.460589250000000,0x01,,
9.461745250000000,0x04,,
9.462902000000000,0x8A,,
9.464058500000000,0x00,,
9.465216249999999,0x04,,
9.466375250000000,0x6C,,
9.467672000000000,0xFF,,
9.468818499999999,0xFF,,
9.469963500000000,0x01,,
9.471108500000000,0x06,,
9.472253500000001,0x00,,
9.473399250000000,0x04,,
9.474544500000000,0x02,,
9.475690000000000,0x01,,
9.476835250000001,0x08,,
9.477980250000000,0xE9,,
9.483998750000000,0x00,,Error
9.779275500000001,0xFF,,
9.780431000000000,0xFF,,
9.781587000000000,0x01,,
9.782744500000000,0x04,,
9.783901250000000,0x8A,,
9.785057500000001,0x00,,
9.786215500000001,0x04,,
9.787374500000000,0x6C,,
9.788669499999999,0xFF,,
9.789815750000001,0xFF,,
9.790961250000001,0x01,,
9.792106250000000,0x06,,
9.793251750000000,0x00,,
9.794397249999999,0x04,,
9.795543000000000,0x02,,
9.796688250000001,0x01,,
9.797833750000001,0x08,,
9.798978750000000,0xE9,,
9.804997500000001,0x00,,Error
10.085269000000000,0xFF,,
10.086425500000001,0xFF,,
10.087581000000000,0x01,,
10.088737000000000,0x04,,
10.089893249999999,0x8A,,
10.091049750000000,0x00,,
10.092208250000001,0x04,,
10.093366500000000,0x6C,,
10.094661750000000,0xFF,,
10.095808249999999,0xFF,,
10.096953250000000,0x01,,
10.098098250000000,0x06,,
10.099243250000001,0x00,,
10.100389000000000,0x04,,
10.101533999999999,0x02,,
10.102679500000001,0x01,,
10.103825000000001,0x08,,
10.104970000000000,0xE9,,
10.110989500000001,0x00,,Error
10.405268500000000,0xFF,,
10.406424500000000,0xFF,,
10.407580500000000,0x01,,
10.408736500000000,0x04,,
10.409893000000000,0x8A,,
10.411049000000000,0x00,,
10.412207499999999,0x04,,
10.413366000000000,0x6C,,
10.414662249999999,0xFF,,
10.415808750000000,0xFF,,
10.416953500000000,0x01,,
10.418098499999999,0x06,,
10.419243500000000,0x00,,
10.420389249999999,0x04,,
10.421534250000001,0x02,,
10.422679499999999,0x01,,
10.423825250000000,0x08,,
10.424970000000000,0xE9,,
10.430988500000000,0x00,,Error
10.717260749999999,0xFF,,
10.718417250000000,0xFF,,
10.719573000000000,0x01,,
10.720728500000000,0x04,,
10.721885250000000,0x8A,,
10.723041500000001,0x00,,
10.724199750000000,0x04,,
10.725358249999999,0x6C,,
10.726655250000000,0xFF,,
10.727801749999999,0xFF,,
10.728946750000000,0x01,,
10.730091750000000,0x06,,
10.731236750000001,0x00,,
10.732382500000000,0x04,,
10.733527499999999,0x02,,
10.734673000000001,0x01,,
10.735818750000000,0x08,,
10.736963749999999,0xE9,,
10.742983499999999,0x00,,Error
11.019256499999999,0xFF,,
11.020412750000000,0xFF,,
11.021569000000000,0x01,,
11.022724750000000,0x04,,
11.023881250000001,0x8A,,
11.025037250000000,0x00,,
11.026195000000000,0x04,,
11.027354000000001,0x6C,,
11.028651249999999,0xFF,,
11.029797750000000,0xFF,,
11.030943250000000,0x01,,
11.032088249999999,0x06,,
11.033233750000001,0x00,,
11.034379250000001,0x04,,
11.035525000000000,0x02,,
11.036670500000000,0x01,,
11.037815750000000,0x08,,
11.038961000000000,0xE9,,
11.044980250000000,0x00,,Error
11.334258000000000,0xFF,,
11.335414000000000,0xFF,,
11.336570500000001,0x01,,
11.337726500000000,0x04,,
11.338883250000000,0x8A,,
11.340039250000000,0x00,,
11.341197500000000,0x04,,
11.342356000000001,0x6C,,
11.343652250000000,0xFF,,
11.344798750000001,0xFF,,
11.345943500000001,0x01,,
11.347088500000000,0x06,,
11.348233499999999,0x00,,
11.349379250000000,0x04,,
11.350524249999999,0x02,,
11.351669749999999,0x01,,
11.352815250000001,0x08,,
11.353960250000000,0xE9,,
11.359979500000000,0x00,,Error
11.696217000000001,0x88,,
11.697206749999999,0xFF,,
16.437202249999999,0x18,,
16.438194249999999,0x6B,,
16.439196750000001,0x7B,,
16.440187000000002,0xE5,,Error
16.441195749999999,0xFD,,
16.480199500000001,0x9B,,Error
16.481226750000001,0x24,,
16.482229749999998,0xFF,,
16.487815000000001,0xFF,,
16.503197000000000,0x1B,,
16.504189250000000,0xFB,,
16.505227500000000,0xFF,,
16.510810249999999,0xFF,,
16.525202250000000,0x1B,,
16.526194749999998,0xD3,,
16.527186749999998,0xFF,,
16.532813999999998,0xFF,,
16.543199500000000,0x9B,,
16.544200750000002,0x51,,Error
16.545229249999998,0xFF,,
16.550809500000000,0xFF,,
16.557202250000000,0x9B,,Error
16.558204000000000,0x71,,
16.559205750000000,0xFF,,
16.564820999999998,0xFF,,
16.571196749999999,0x1F,,
16.572206250000001,0x9E,,Error
16.573227500000002,0xFF,,
16.578815500000001,0xFF,,
16.587197000000000,0x1B,,Error
16.588215250000001,0xCC,,Error
16.589227999999999,0xFF,,
16.594810500000001,0xFF,,
16.602200499999999,0x9F,,
16.603193999999998,0x0B,,Error
16.604194249999999,0xFF,,
16.609814000000000,0xFF,,
16.618202250000000,0x9F,,
16.619195500000000,0xFB,,
16.620187999999999,0xFF,,
16.625817500000000,0xFF,,
16.635197000000002,0x9F,,
16.636189750000000,0xB3,,
16.637184500000000,0xFF,,
16.642812750000001,0xFF,,
16.651199750000000,0x1F,,Error
16.652199750000001,0xB9,,
16.653191249999999,0xFF,,
16.658807500000002,0xFF,,
16.667196250000000,0x1F,,
16.668188499999999,0xBB,,Error
16.669198250000001,0xFF,,
16.674810250000000,0xFF,,
16.684196499999999,0x1B,,Error
16.685213749999999,0x7C,,Error
16.686225250000000,0xFF,,
16.691813249999999,0xFF,,
16.700194499999998,0x3A,,Error
16.701259000000000,0x3F,,
16.702269749999999,0xDF,,
16.710194999999999,0x9B,,
16.711222500000002,0x1F,,
16.712226000000001,0xDF,,
16.720197750000001,0x1A,,
16.721198250000000,0x0D,,Error
16.722227250000000,0xFB,,
16.731196250000000,0xBF,,Error
16.732260749999998,0x9B,,Error
16.733270999999998,0xDF,,
16.740197999999999,0x3E,,Error
16.741208000000000,0xA2,,Error
16.742228000000001,0xFF,,
16.752198000000000,0x3F,,
16.753191749999999,0xA3,,
16.754192750000001,0xFF,,
16.764194249999999,0xBE,,
16.765188250000001,0xA3,,Error
16.766226000000000,0xDF,,
16.774200749999999,0xBB,,Error
16.775228500000001,0xC8,,
16.776231500000002,0xFF,,
16.788194250000000,0xBB,,
16.789188750000001,0x8B,,Error
16.790199000000001,0xFF,,
16.800193000000000,0xBA,,
16.801186250000001,0x8B,,
16.802188250000000,0xFF,,
16.813200999999999,0x3A,,
16.814195250000001,0xCB,,Error
16.815231749999999,0xFF,,
16.824200749999999,0x3B,,
16.825220250000001,0xFA,,
16.826233250000001,0xFF,,
